! Touchstone file from project sampleWidthScale-none
! Exported from HFSS-IE 2014.0.2
! Variables:
!  $perm = 6
!  impedance = 157.9ohm
!  insulationThickness = 0in
!  length = 4in
!  portSize = 1mm
!  sampleSide = 0.125in
!  sampleThickness = 0.25in
!  scale = 1
!  spacing = 0.25in
!  wireDiam = 0.125in
!  wireRadius = 0.0625in
# GHZ S MA R 157.900000
! Terminal data exported
! Port[1] = Rectangle2_T1
! Port[2] = Rectangle2_T2
0.5              0.00297632431519227 15.3078244497274 0.999578405064501 -64.1540063097219 0.999578405064501 -64.1540063097219 0.00305842823637492 37.3912884994556 
0.55             0.00491810756484993 20.5137002506761 0.99870120783005 -70.5415583487495 0.99870120783005 -70.5415583487495 0.00516188289095934 35.2864655220868 
0.6              0.00663849329290805 13.7418611381147 0.998426468462379 -76.9513107947763 0.998426468462379 -76.9513107947763 0.00685195659021879 26.1985694520686 
0.65             0.00826618479431724 5.4581935163643  0.99836300251785 -83.3740724552498 0.998363002517849 -83.3740724552498 0.00841776769434966 16.6377896884614 
0.7              0.00994675046840621 -2.41218550942624 0.998321330937728 -89.8021530002352 0.998321330937728 -89.8021530002352 0.0100431142211265 7.73650828065252 
0.75             0.0117630616120581 -9.56383644950757 0.99822333331495 -96.2303156338897 0.99822333331495 -96.2303156338897 0.0118218493216724 -0.382646050346524 
0.8              0.0137534350906135 -16.126357220664 0.998048273229787 -102.655573045059 0.998048273229787 -102.655573045059 0.0137918834116614 -7.88173457475713 
0.85             0.0159249423725104 -22.3154612297143 0.997801840778352 -109.076633717271 0.997801840778353 -109.076633717271 0.0159553757123334 -14.9709794287997 
0.9              0.0182612934016792 -28.3167328242248 0.997499194622207 -115.493326794608 0.997499194622207 -115.493326794608 0.0182903863218205 -21.8251928052102 
0.95             0.0207285006911393 -34.2585932330666 0.99715630690665 -121.906115898614 0.99715630690665 -121.906115898614 0.0207582888441278 -28.5661244485563 
1                0.0232793311031852 -40.2182144333237 0.996786218056277 -128.315721475062 0.996786218056277 -128.315721475062 0.0233087538354472 -35.2698004597001 
1.05             0.0258566560269483 -46.2351729020742 0.996398341394376 -134.722841895986 0.996398341394376 -134.722841895986 0.0258830563474979 -41.9789940747081 
1.1              0.02839597672419 -52.322832139777 0.995999942179634 -141.127967562123 0.995999942179634 -141.127967562123 0.0284163732200407 -48.7130201716713 
1.15             0.0308280369324649 -58.4748066394984 0.995599392110127 -147.531311385806 0.995599392110128 -147.531311385806 0.0308401396267848 -55.4730343288681 
1.2              0.0330832813888226 -64.6675740024236 0.995210445221331 -153.932926779978 0.99521044522133 -153.932926779978 0.0330862077938754 -62.2440659094668 
1.25             0.0351002426534358 -70.8635813248291 0.994854889048714 -160.333105273496 0.994854889048715 -160.333105273496 0.0350947619466379 -68.9979441761125 
1.3              0.0368371932795654 -77.0228589129674 0.994557696345632 -166.73299067883 0.994557696345633 -166.73299067883 0.0368252360272163 -75.7046689784191 
1.35             0.038277491696401 -83.1287497342853 0.994329533668698 -173.134846609705 0.994329533668697 -173.134846609705 0.0382609642378859 -82.3572983599805 
1.4              0.0394119188121611 -89.2119245318739 0.994146930049453 -179.541032989499 0.994146930049453 -179.541032989499 0.0393917207018442 -88.9947971621994 
1.45             0.0402030375236389 -95.3325848829227 0.993960880254844 174.048016925517 0.993960880254844 174.048016925517 0.0401794468841977 -95.6844959239287 
1.5              0.0405774311002004 -101.520343211251 0.993739819822657 167.634252332685 0.993739819822657 167.634252332685 0.0405513143409027 -102.464429649837 
1.55             0.0404656385328277 -107.745930816983 0.993494217628182 161.219762005179 0.993494217628183 161.219762005179 0.0404386698636802 -109.317111412787 
1.6              0.0398364254872231 -113.957904656711 0.993251719939258 154.804816917864 0.993251719939258 154.804816917864 0.0398102988013846 -116.206317435612 
1.65             0.0386889134024204 -120.125053165979 0.993024272858522 148.38830729496  0.993024272858522 148.38830729496  0.0386650340521315 -123.119912639031 
1.7              0.0370289140138185 -126.242584386254 0.992802230878902 141.969107836431 0.992802230878902 141.969107836431 0.0370090686792616 -130.078910731823 
1.75             0.034857359772957 -132.316835466725 0.992565605446736 135.546766453295 0.992565605446736 135.546766453295 0.0348448174852181 -137.127859842363 
1.8              0.0321715066713481 -138.350328460892 0.992294543711934 129.121465570064 0.992294543711934 129.121465570064 0.0321721270498862 -144.329574601481 
1.85             0.0289702713246735 -144.332222353681 0.991973771539186 122.693746597848 0.991973771539187 122.693746597848 0.0289937403648524 -151.773913037732 
1.9              0.0252587266861087 -150.228760138924 0.991592996269542 116.264281232364 0.991592996269542 116.264281232364 0.0253205784080507 -159.607814175818 
1.95             0.0210508211849915 -155.961949829355 0.991145834788511 109.833746704536 0.991145834788511 109.833746704536 0.0211768834418844 -168.111680773843 
2                0.0163711172174605 -161.343045034544 0.990628613261404 103.402777846523 0.990628613261404 103.402777846523 0.0166093794964874 -177.918753049772 
2.05             0.0112577972905842 -165.800486614026 0.990039483142344 96.9719609711562 0.990039483142344 96.9719609711562 0.0117184259594731 169.179964229994 
2.1              0.00578215433668822 -166.464626281852 0.989377903519161 90.5418463162199 0.989377903519161 90.5418463162199 0.00683615561550992 145.996710738238 
2.15             0.00118326482972475 -83.7167513066686 0.988644424771405 84.1129667257941 0.988644424771405 84.112966725794  0.00414384641453636 80.7316891310772 
2.2              0.00649915589756626 -21.1049710693695 0.98784070354046 77.6858568137048 0.98784070354046 77.6858568137048 0.00774513866094195 21.8543404478218 
2.25             0.0128444415995886 -22.3870756003787 0.986969708033645 71.2610700072947 0.986969708033645 71.2610700072947 0.0135634860939871 0.661921787580658 
2.3              0.0193717527390304 -27.0428394250947 0.986036109925524 64.8391917052095 0.986036109925525 64.8391917052095 0.0198632841309822 -11.7897354697208 
2.35             0.0259738445255581 -32.586855363807 0.985046897006252 58.4208456104363 0.985046897006252 58.4208456104362 0.0263274252015365 -21.5034804977355 
2.4              0.0325578485634479 -38.4935579752058 0.984012269942025 52.0066865383457 0.984012269942025 52.0066865383457 0.0328110551916101 -30.0447295255136 
2.45             0.0390301539302861 -44.5799986690804 0.982946876951475 45.597365309474  0.982946876951475 45.5973653094739 0.0392028519013255 -37.9789714618205 
2.5              0.0452963232093503 -50.7610254987901 0.981871308353922 39.1934386615299 0.981871308353922 39.1934386615299 0.0454014361421259 -45.5537487747102 
2.55             0.0512645205824455 -56.9866387430564 0.980813340443572 32.7951828242302 0.980813340443573 32.7951828242302 0.0513121781268651 -52.8896747271302 
2.6              0.056851663934465 -63.2220756395236 0.979807431481356 26.402273227152  0.979807431481356 26.402273227152  0.0568507991808659 -60.0490116132863 
2.65             0.0619912985037934 -69.4436682199901 0.978889487532847 20.0133713015442 0.978889487532847 20.0133713015442 0.0619499114600671 -67.067767255973 
2.7              0.0666382870173906 -75.6439232305947 0.978083624186513 13.6258969318914 0.978083624186513 13.6258969318914 0.0665629768253232 -73.9772521014298 
2.75             0.0707597967877842 -81.8398481112219 0.977383471119754 7.23659444491404 0.977383471119754 7.23659444491405 0.0706554015726266 -80.8204811416826 
2.8              0.0743059977192698 -88.070750982117 0.976745566920387 0.843290028203764 0.976745566920387 0.843290028203734 0.0741764563379099 -87.6546523514054 
2.85             0.0771816691458576 -94.3727471565924 0.97611820419677 -5.55334510494239 0.976118204196768 -5.55334510494239 0.0770322379316005 -94.5294562660775 
2.9              0.0792627247941244 -100.746484065758 0.975490918943024 -11.9505899605035 0.975490918943024 -11.9505899605034 0.0791015982028074 -101.457913775154 
2.95             0.0804544356123228 -107.157786145714 0.974903942660781 -18.346959799353 0.974903942660781 -18.346959799353 0.0802919604524355 -108.418187927712 
3                0.0807227848736171 -113.572194222738 0.974401695931838 -24.7440186851467 0.974401695931839 -24.7440186851466 0.0805695777670499 -115.38768515667 
3.05             0.0800699652861132 -119.980257727557 0.973991406983286 -31.1449020058824 0.973991406983286 -31.1449020058823 0.0799363697762909 -122.368385669653 
3.1              0.0784985723743484 -126.393986175693 0.973644989689371 -37.5521069464902 0.973644989689371 -37.5521069464902 0.0783957274738367 -129.384685188769 
3.15             0.07600023479728 -132.831967221306 0.973321787354851 -43.9666949369413 0.973321787354851 -43.9666949369413 0.0759415421099663 -136.470612818892 
3.2              0.0725633555786913 -139.310133663705 0.972984704818528 -50.3886316978059 0.972984704818528 -50.3886316978059 0.0725656045486378 -143.663045569277 
3.25             0.0681840240274184 -145.840453634514 0.972604714486861 -56.817339474965 0.972604714486861 -56.817339474965 0.0682682983556072 -151.00379513819 
3.3              0.0628728892527886 -152.433923133072 0.972159441183877 -63.2520391004743 0.972159441183876 -63.2520391004743 0.0630658091134549 -158.548394098565 
3.35             0.0566578551760801 -159.105585386604 0.97163071521079 -69.691873213828 0.97163071521079 -69.691873213828 0.0569939651608041 -166.382108321489 
3.4              0.0495843478255956 -165.882359731978 0.971003006168781 -76.135913036836 0.971003006168782 -76.135913036836 0.0501110783713812 -174.650286485427 
3.45             0.0417145854423414 -172.818908087505 0.970262952518775 -82.5831294418038 0.970262952518776 -82.5831294418038 0.0425031163232906 176.375264930202 
3.5              0.0331268389704937 179.96038326704  0.969399656159504 -89.0323694463736 0.969399656159504 -89.0323694463736 0.0342983429714189 166.127068037792 
3.55             0.0239163012350286 172.115448068508 0.968405368322216 -95.4823532686024 0.968405368322218 -95.4823532686024 0.0257165299885141 153.227439865483 
3.6              0.0142067748554996 162.319466090011 0.967276287365178 -101.931694331792 0.967276287365179 -101.931694331792 0.0172765601715065 133.569336063665 
3.65             0.00435774290980804 136.692848197713 0.966013289245689 -108.37893957999 0.96601328924569 -108.37893957999 0.0109152609268343 93.6507295414398 
3.7              0.00691014016038681 -5.93261190449318 0.96462248564583 -114.822626297623 0.964622485645831 -114.822626297623 0.0121271983801837 33.5810233677287 
3.75             0.0174092776378705 -22.6074050371085 0.963115548289847 -121.261352381755 0.963115548289847 -121.261352381755 0.0199223997132594 0.255369089446266 
3.8              0.0281000793003922 -31.6063760624696 0.961509746992288 -127.693858652895 0.961509746992288 -127.693858652895 0.0295499581167165 -17.1465486953009 
3.85             0.0387451059514588 -39.2100146633835 0.959827612789069 -134.119123190732 0.959827612789069 -134.119123190732 0.0396233416155267 -29.1995262925933 
3.9              0.0492039518837505 -46.3121878385983 0.95809604413127 -140.536466511003 0.958096044131271 -140.536466511003 0.049709652997866 -39.040035932352 
3.95             0.0593515298277588 -53.1744602499285 0.956344536078519 -146.945657801337 0.956344536078519 -146.945657801337 0.0595860959114502 -47.7785357091607 
4                0.0690716239021759 -59.9036192132629 0.954602143130107 -153.346988753126 0.954602143130107 -153.346988753126 0.0690961913174916 -55.8958290842104 
4.05             0.0782551642102181 -66.5556618271996 0.9528931437691  -159.741239082663 0.9528931437691  -159.741239082663 0.0781119179889843 -63.6357026564473 
4.1              0.0867962529153529 -73.1677301494631 0.951232805292288 -166.129423895025 0.951232805292287 -166.129423895025 0.0865178435611453 -71.1394576307045 
4.15             0.0945847830692089 -79.7680538657793 0.949627285802254 -172.5122916181  0.949627285802255 -172.5122916181  0.0941992752279193 -78.4978169953297 
4.2              0.10150054555691 -86.375520997032 0.948082652719709 -178.889869814633 0.948082652719709 -178.889869814633 0.101034431859021 -85.7698343748872 
4.25             0.107419680565574 -92.9956808910131 0.946620526735463 174.738257901147 0.946620526735463 174.738257901147 0.10689950790035 -92.9886571210444 
4.3              0.112236993905644 -99.6224169738282 0.945283363083642 168.371668332116 0.945283363083642 168.371668332116 0.111689559380067 -100.168257285843 
4.35             0.11588471619913 -106.24948172202 0.944114787190838 162.007969796061 0.944114787190838 162.007969796061 0.11533652602711 -107.31752067606 
4.4              0.118324334873465 -112.882350296084 0.943131284371576 155.643334240201 0.943131284371577 155.643334240201 0.11780173079958 -114.45366915137 
4.45             0.119520993780463 -119.538628430946 0.942315902064491 149.274190563683 0.942315902064491 149.274190563683 0.119051451829876 -121.604161744487 
4.5              0.119429717013372 -126.239574175372 0.941635353386102 142.898265853986 0.941635353386102 142.898265853986 0.119043421358826 -128.799656324567 
4.55             0.118001923752397 -133.003248681481 0.941057739173508 136.514389403679 0.941057739173508 136.514389403679 0.11773268172214 -136.068276859637 
4.6              0.115199326042745 -139.843733356031 0.940557913737887 130.121823381367 0.940557913737888 130.121823381367 0.115084776855703 -143.435698336497 
4.65             0.111003869418863 -146.774272401263 0.940113936996341 123.719826185748 0.940113936996341 123.719826185748 0.111085502442594 -150.929264937292 
4.7              0.105421769677793 -153.81163097609 0.939701809110467 117.30758229566  0.939701809110467 117.30758229566  0.105745312315731 -158.583827010336 
4.75             0.0984841349937634 -160.981076624448 0.939292199305074 110.884348444439 0.939292199305074 110.884348444439 0.0991008049112559 -166.449152840512 
4.8              0.090246612138221 -168.323365085078 0.938849725286119 104.449661517356 0.93884972528612 104.449661517356 0.091215864359745 -174.601024107604 
4.85             0.0807894259703761 -175.907199252258 0.938334157928106 98.003524102453  0.938334157928106 98.003524102453  0.0821843660731636 176.839120359157 
4.9              0.0702187704466343 176.144819872985 0.937702831443642 91.5465352179364 0.937702831443641 91.5465352179364 0.0721367628549597 167.665265926032 
4.95             0.0586715146622823 167.595012346009 0.936913725805642 85.079957008005  0.936913725805641 85.0799570080049 0.0612559096632783 157.502278286846 
5                0.0463300560870569 157.923449752478 0.935928840817772 78.6057156047155 0.935928840817773 78.6057156047155 0.0498180472792483 145.60372804452  
5.05             0.0334769432672649 145.766077086387 0.934717545969466 72.126336059121  0.934717545969465 72.126336059121  0.0383129953965578 130.321332604968 
5.1              0.0207684177252707 126.364123378462 0.933259590546923 65.6448122968731 0.933259590546922 65.6448122968731 0.0278444177634074 107.73407526644  
5.15             0.0113764956114872 78.0214438737305 0.931547423757209 59.1644156237716 0.931547423757209 59.1644156237716 0.0213223213414893 70.8954927922194 
5.2              0.0157495061495259 8.29192328954844 0.929587426503435 52.6884507717684 0.929587426503435 52.6884507717684 0.0232219117159592 26.4847815684378 
5.25             0.0282956075294747 -19.5296374795149 0.927399618105464 46.2199787403769 0.927399618105464 46.2199787403769 0.0323079990407129 -4.288912307235  
5.3              0.0422003550576602 -33.8958289006205 0.925015425868486 39.7615435651154 0.925015425868486 39.7615435651154 0.0443160925072684 -23.3806277400792 
5.35             0.0562462447779999 -44.354110587245 0.922473323608004 33.3149677479893 0.922473323608003 33.3149677479893 0.0572455975878958 -37.0155357475572 
5.4              0.0700487101265499 -53.2320046738427 0.919812812100651 26.8813130180683 0.919812812100651 26.8813130180683 0.0703142632889878 -48.039423014158 
5.45             0.0833833578441713 -61.3321963164084 0.917068633504973 20.4611105524461 0.917068633504973 20.4611105524462 0.0831305236848732 -57.6780533290433 
5.5              0.0960673793927588 -69.0062002008933 0.914269121223876 14.054877339638  0.914269121223877 14.054877339638  0.0954347559589653 -66.5184537099134 
5.55             0.107923923243198 -76.4322677066765 0.911443339294805 7.66366963197378 0.911443339294805 7.6636696319738  0.107012075566665 -74.8710591080832 
5.6              0.118774556022602 -83.7049353276501 0.908636971877544 1.28906119326658 0.908636971877544 1.28906119326658 0.117664673821252 -82.908706000335 
5.65             0.128454157298211 -90.8714917929932 0.90592484864401 -5.06801609699538 0.905924848644011 -5.06801609699538 0.127217411548247 -90.7278837719734 
5.7              0.136835847062851 -97.9562783372659 0.903400073522084 -11.4090530272308 0.903400073522083 -11.4090530272308 0.135537775320909 -98.3855253615656 
5.75             0.143837503907144 -104.981694277692 0.901137443259584 -17.7384922398439 0.901137443259583 -17.7384922398439 0.142540240455989 -105.926576643695 
5.8              0.149394731774059 -111.97864371097 0.899163455250095 -24.0618267092644 0.899163455250095 -24.0618267092644 0.148159049050563 -113.398319571141 
5.85             0.153426190181118 -118.981362282301 0.897465627701539 -30.3828694198175 0.897465627701539 -30.3828694198175 0.152313431782425 -120.847831687202 
5.9              0.155829268678914 -126.015357464097 0.896029333083581 -36.7027849002058 0.896029333083581 -36.7027849002058 0.154901847832699 -128.311634538548 
5.95             0.156509002092545 -133.09113527565 0.894863705452757 -43.0211782029428 0.894863705452757 -43.0211782029427 0.155828767293252 -135.810257784075 
6                0.155413974601531 -140.20675993168 0.89400012737672 -49.337459281561 0.89400012737672 -49.337459281561 0.155039199572178 -143.351043323824 
