! Touchstone file from project sampleWidthScale-10
! Exported from HFSS-IE 2014.0.2
! Variables:
!  $perm = 6
!  impedance = 157.9ohm
!  insulationThickness = 0in
!  length = 4in
!  portSize = 1mm
!  sampleSide = 1.25in
!  sampleThickness = 0.25in
!  scale = 10
!  spacing = 0.25in
!  wireDiam = 0.125in
!  wireRadius = 0.0625in
# GHZ S MA R 157.900000
! Terminal data exported
! Port[1] = Rectangle2_T1
! Port[2] = Rectangle2_T2
0.5              0.0818634140777101 -159.401383120958 0.995852145597813 -69.0289675787206 0.995852145597813 -69.0289675787206 0.081898941237513 -159.26681323753 
0.55             0.0884549422487914 -166.760355881808 0.994545824609091 -75.903538964382 0.994545824609091 -75.903538964382 0.08832626894391 -166.567914336263 
0.6              0.0951752701365946 -173.673964593816 0.993694818079981 -82.7963357412423 0.993694818079982 -82.7963357412422 0.0949986009882513 -173.45880204395 
0.65             0.101866381433412 179.548390240254 0.992943843259275 -89.6972579002012 0.992943843259276 -89.6972579002012 0.101709178217604 179.759697322415 
0.7              0.108419813295242 172.782869558684 0.992145956058077 -96.5989658297909 0.992145956058077 -96.5989658297909 0.108313191905502 172.973141813598 
0.75             0.114781084242657 165.988964865223 0.991260359674399 -103.497467289462 0.991260359674399 -103.497467289462 0.114731458214581 166.149651321592 
0.8              0.120939794515347 159.160231081199 0.990293076291151 -110.39153028574 0.990293076291152 -110.39153028574 0.120938501081962 159.289591683245 
0.85             0.126916216881477 152.302540085805 0.9892640882288  -117.281808348337 0.9892640882288  -117.281808348337 0.126946979040915 152.40359946895  
0.9              0.132750379639856 145.425490207328 0.988190101381487 -124.169989887075 0.988190101381486 -124.169989887075 0.132794883128536 145.504151723179 
0.95             0.138496075200625 138.539370726672 0.987076839156833 -131.058023712728 0.987076839156833 -131.058023712728 0.138537989522388 138.602776062239 
1                0.144220084095325 131.6534215205   0.98591898670105 -137.947399591187 0.98591898670105 -137.947399591187 0.144247706403727 131.708508625744 
1.05             0.150003567206864 124.772542751792 0.98470948366206 -144.838596788203 0.98470948366206 -144.838596788203 0.150010954377105 124.824745884152 
1.1              0.155934957930989 117.891591259588 0.983458865190325 -151.731252276803 0.983458865190324 -151.731252276803 0.155921004205324 117.943769820911 
1.15             0.162077625325482 110.992962926432 0.982208757129391 -158.625954766712 0.982208757129392 -158.625954766712 0.162042543307491 111.04499399813  
1.2              0.168423984800613 104.061312612829 0.98099587294719 -165.526890681876 0.980995872947191 -165.526890681876 0.168364239229391 104.111065031023 
1.25             0.174919214236292 97.112135561919  0.97976387257775 -172.440354058389 0.979763872577752 -172.440354058389 0.174825069854869 97.1578642806962 
1.3              0.181586808148406 90.1879153629284 0.978360467238691 -179.367212257536 0.978360467238691 -179.367212257536 0.181446493897752 90.23036476602   
1.35             0.188572626538169 83.309660036268  0.976685039241896 173.699720964715 0.976685039241896 173.699720964715 0.188380282775647 83.3518725783401 
1.4              0.196018405599418 76.456943474727  0.974770910971881 166.768133808716 0.974770910971881 166.768133808716 0.195778502036797 76.5022280423874 
1.45             0.203964827693695 69.598035566299  0.972704635497947 159.840384500215 0.972704635497947 159.840384500214 0.203690688522795 69.648207068287  
1.5              0.212377161314098 62.7161806893195 0.970537877019858 152.914896897323 0.970537877019859 152.914896897323 0.212086803540731 62.7710754279151 
1.55             0.221202307377384 55.8110010716218 0.968272405502453 145.989457417591 0.968272405502453 145.989457417591 0.220914675102198 55.8688673995178 
1.6              0.230396867184787 48.8901924077461 0.965881084635836 139.062866728939 0.965881084635836 139.062866728939 0.230129352608339 48.9483317587858 
1.65             0.23993042237477 41.9630569681698 0.963328059029726 132.135153493758 0.963328059029726 132.135153493758 0.239697434052392 42.0183999551547 
1.7              0.249780184416613 35.0376062601433 0.9605795364793  125.207274953125 0.9605795364793  125.207274953125 0.249592373651543 35.0871455863275 
1.75             0.259925206557853 28.1198019983256 0.957607923001249 118.280782574684 0.957607923001249 118.280782574684 0.259789100117535 28.1608929175759 
1.8              0.270342280694823 21.213676091749  0.954392804365415 111.357580843866 0.954392804365415 111.357580843866 0.270260193999839 21.244232166059  
1.85             0.281003439122254 14.3217028066081 0.950920775100068 104.439776913037 0.950920775100068 104.439776913037 0.28097361166034 14.3403109175138 
1.9              0.291874561790131 7.44518400445575 0.947184991730164 97.529592300648  0.947184991730164 97.529592300648  0.291891483906344 7.4511564383297  
1.95             0.302914679163069 0.584578761669254 0.943184768030583 90.6293120172788 0.943184768030583 90.6293120172788 0.302969586686692 0.577955883763813 
2                0.314075712775149 -6.26022961468238 0.938925302038148 83.7412550685271 0.938925302038147 83.7412550685271 0.31415722528147 -6.27871508934887 
2.05             0.32530250668267 -13.0897179956905 0.93441754902271 76.8677567562467 0.93441754902271 76.8677567562467 0.325397382747091 -13.1187056106624 
2.1              0.336533070793008 -19.9045444889034 0.929678242120329 70.0111570108157 0.929678242120329 70.0111570108157 0.336627052315652 -19.9421311142519 
2.15             0.347698999348375 -26.7053912690416 0.924730075033949 63.1737906956851 0.924730075033949 63.1737906956851 0.347777718180643 -26.7492293392941 
2.2              0.358726063263808 -33.4928140701042 0.919602084561305 56.3579757752201 0.919602084561304 56.3579757752201 0.358775987327362 -33.540217099854 
2.25             0.369535021795359 -40.267082197083 0.914330297873844 49.5659932367265 0.914330297873844 49.5659932367265 0.369544424406583 -40.3151335248123 
2.3              0.380042778599303 -47.0279920570705 0.908958730887362 42.8000478571591 0.908958730887361 42.8000478571591 0.38000272282656 -47.0736552674136 
2.35             0.390164147887348 -53.7746396674262 0.903540814881239 36.0621897215741 0.903540814881238 36.0621897215741 0.390069485101057 -53.8148726381488 
2.4              0.399814730029777 -60.5051512168355 0.8981412250462  29.3541608741147 0.8981412250462  29.3541608741147 0.399665112841216 -60.537030764319 
2.45             0.408915730541471 -67.2164128601007 0.892837743926179 22.6771093106851 0.892837743926178 22.6771093106851 0.408716622648644 -67.2372841713924 
2.5              0.417401869427202 -73.9039446435387 0.887721941368842 16.0310924614673 0.887721941368842 16.0310924614674 0.417165472253707 -73.9116192439255 
2.55             0.425233278505783 -80.5622727648459 0.882895727891211 9.41431177296285 0.882895727891211 9.41431177296285 0.424979137984326 -80.5553081185547 
2.6              0.43240997484224 -87.1864601396779 0.878458307701205 2.82218065127799 0.878458307701205 2.82218065127798 0.432164712894502 -87.1645519505202 
2.65             0.438980530757323 -93.7755597640369 0.874477113803324 -3.75319797580833 0.874477113803324 -3.75319797580834 0.438775647926126 -93.7400344808266 
2.7              0.445024769212348 -100.337657371003 0.870945033001105 -10.3217806331995 0.870945033001105 -10.3217806331995 0.444891079173655 -100.291916935833 
2.75             0.450588624766705 -106.892593532012 0.867755267138528 -16.8911045905758 0.867755267138528 -16.8911045905759 0.450546640095302 -106.842129820114 
2.8              0.4555947608614  -113.464886647802 0.864755836596604 -23.4601945018777 0.864755836596604 -23.4601945018778 0.455643673003606 -113.41636387529 
2.85             0.459836306583794 -120.066249077261 0.861893266972811 -30.0191040335236 0.86189326697281 -30.0191040335235 0.459948851838954 -120.025604206449 
2.9              0.463124647553752 -126.685592359426 0.859300726109842 -36.5589838590666 0.859300726109842 -36.5589838590666 0.463254529838231 -126.656086767612 
2.95             0.465442492815052 -133.302639733321 0.857188357163097 -43.0826865477903 0.857188357163098 -43.0826865477903 0.465541508824999 -133.284155140544 
3                0.466912704449671 -139.908943038995 0.855662463406993 -49.6027444091303 0.855662463406992 -49.6027444091303 0.466946391627152 -139.898835104107 
3.05             0.46765662036759 -146.511931339145 0.854683897261644 -56.1314616047119 0.854683897261643 -56.1314616047119 0.467610429781258 -146.506594652915 
3.1              0.46771902447653 -153.124787673463 0.854150071398478 -62.6754043757635 0.854150071398478 -62.6754043757635 0.467595762362914 -153.120955966967 
3.15             0.46708726424325 -159.757413678688 0.853971773776566 -69.2364226487309 0.853971773776566 -69.2364226487309 0.466900798661226 -159.752811341642 
3.2              0.465737331448679 -166.41395310117 0.854095443703103 -75.814636449347 0.854095443703103 -75.814636449347 0.465506492035382 -166.407413059237 
3.25             0.463663971872604 -173.094133093654 0.854492332015436 -82.4103717217813 0.854492332015436 -82.4103717217813 0.463408149786957 -173.085433477878 
3.3              0.460891176392897 -179.795247994906 0.855141428531037 -89.0247204535868 0.855141428531037 -89.0247204535868 0.460627637756514 -179.784853351626 
3.35             0.457472439962232 173.486445938144 0.856017643305885 -95.6593208207132 0.856017643305885 -95.6593208207132 0.45721489948657 173.497649881748 
3.4              0.453488281812124 166.754926310366 0.857086956666827 -102.315860290971 0.857086956666827 -102.315860290971 0.453246323417262 166.765877751    
3.45             0.449044075311916 160.013797864847 0.858307614475698 -108.995568522424 0.858307614475698 -108.995568522424 0.448823191157605 160.023484314333 
3.5              0.444267651062783 153.265463624048 0.859636703593401 -115.698875069389 0.859636703593401 -115.698875069389 0.444069855295872 153.273130936484 
3.55             0.439302960319132 146.509840835653 0.861041224164148 -122.425476751979 0.861041224164148 -122.425476751979 0.439128066296625 146.515173272867 
3.6              0.434293574734507 139.743018563678 0.862509098661308 -129.175179115061 0.862509098661308 -129.175179115061 0.434141228168593 139.746241801452 
3.65             0.429352945492748 132.957616902564 0.864046588621453 -135.949657675837 0.864046588621454 -135.949657675837 0.429225211408021 132.959428694781 
3.7              0.424537583666914 126.147698177286 0.865642448070909 -142.754027260609 0.865642448070909 -142.754027260609 0.424441119596588 126.148919162847 
3.75             0.419869454330965 119.31780065793  0.867205118965242 -149.595183026251 0.867205118965242 -149.595183026251 0.419815381945887 119.318758529986 
3.8              0.41543271598013 112.486017869707 0.868547414733498 -156.475383785624 0.868547414733498 -156.475383785624 0.415432633257607 112.485968524296 
3.85             0.411450545502609 105.670020627424 0.869491488678958 -163.387344967672 0.869491488678958 -163.387344967672 0.411510003101355 105.667110800909 
3.9              0.408209616913339 98.8680497788555 0.869998131934936 -170.319213902255 0.869998131934935 -170.319213902255 0.408323547451007 98.8600122490135 
3.95             0.405903825000398 92.0597743530571 0.870150428643109 -177.264402193538 0.870150428643109 -177.264402193538 0.406057217525427 92.0448971058769 
4                0.404583059347512 85.2240587875468 0.870028180148148 175.775589533653 0.870028180148147 175.775589533653 0.404755579210706 85.2017939526249 
4.05             0.404219303707807 78.351160469671  0.869630123355521 168.795772492635 0.869630123355521 168.795772492635 0.404390383396924 78.3221826560639 
4.1              0.404780037799936 71.4422836689073 0.868883786352121 161.792553098411 0.868883786352121 161.792553098411 0.404932394189947 71.4082045319019 
4.15             0.406255209419315 64.5039765531859 0.867687699980065 154.765552616252 0.867687699980065 154.765552616252 0.40637663974479 64.4669606078065 
4.2              0.408651102678993 57.5437045044567 0.865943722113176 147.717284464122 0.865943722113176 147.717284464122 0.408735132971514 57.5061120877985 
4.25             0.411974970573165 50.5679269734769 0.863571989113272 140.65222828774  0.863571989113273 140.65222828774  0.412020868175118 50.5320200715092 
4.3              0.416222327818036 43.5818309990919 0.860514918925124 133.576044620688 0.860514918925123 133.576044620688 0.416234759960181 43.5495439349006 
4.35             0.421369551292176 36.5897697887162 0.85673670702795 126.495074849211 0.85673670702795 126.495074849211 0.421358011685967 36.5625414534674 
4.4              0.42737099011527 29.5958510274768 0.852221745576558 119.416054956086 0.852221745576558 119.416054956086 0.427349042292768 29.5745169178874 
4.45             0.434159233527181 22.604428887655  0.846973214043724 112.345945000493 0.846973214043724 112.345945000493 0.434143598653584 22.5891716089119 
4.5              0.441647457361417 15.6204163318546 0.841012031714732 105.291803956304 0.841012031714732 105.291803956304 0.441656976427226 15.6107713195592 
4.55             0.449733094168912 8.6494080700288  0.834375974316719 98.2606703398422 0.834375974316718 98.2606703398422 0.449787603630272 8.64431824588715 
4.6              0.458302280543197 1.69763673974411 0.827118681338584 91.2594313793249 0.827118681338584 91.2594313793249 0.458421449126704 1.69554702540702 
4.65             0.467234647306004 -5.22820107833119 0.819308332720347 84.2946776651586 0.819308332720348 84.2946776651586 0.467436827032142 -5.22922011986774 
4.7              0.476408083041491 -12.1212072735038 0.811025870968905 77.3725485569161 0.811025870968906 77.3725485569161 0.476709229054651 -12.1233176465966 
4.75             0.485703155553483 -18.9745917540359 0.802362749785395 70.4985778599904 0.802362749785395 70.4985778599904 0.48611586763233 -18.9800381134294 
4.8              0.495006937783394 -25.7819923011018 0.79341828275228 63.6775505162344 0.79341828275228 63.6775505162344 0.495539672425526 -25.792952250009 
4.85             0.504216058960608 -32.5377751338355 0.784296732831594 56.913380043608  0.784296732831593 56.913380043608  0.504872555766151 -32.5562161994298 
4.9              0.513238883414033 -39.237295358514 0.77510431805094 50.2090139030942 0.775104318050941 50.2090139030942 0.514017844071823 -39.2648435058639 
4.95             0.521996798987872 -45.877105617008 0.765946308843253 43.566370596858  0.765946308843253 43.5663705968579 0.522891852036696 -45.9149291963068 
5                0.530424663625351 -52.4551098500487 0.756924361124612 36.9863088900631 0.756924361124613 36.986308890063  0.531424643089634 -52.5038227936368 
5.05             0.538470502548282 -58.9706665433516 0.748134173233497 30.4686269282742 0.748134173233498 30.4686269282741 0.539560061928754 -59.0302556186249 
5.1              0.546094561025406 -65.4246517552121 0.739663483942245 24.0120881091413 0.739663483942245 24.0120881091413 0.547255132019884 -65.494434860936 
5.15             0.553267790176218 -71.8194962693827 0.731590355292363 17.6144725147185 0.731590355292363 17.6144725147185 0.554478870148994 -71.8981221435959 
5.2              0.559969765467493 -78.1592123312948 0.723981628785979 11.2726589993375 0.723981628785979 11.2726589993375 0.56121046554151 -78.2447162696659 
5.25             0.566185899567755 -84.4494208417863 0.716891447224177 4.98275529753107 0.716891447224177 4.98275529753107 0.567436585604884 -84.5393547979597 
5.3              0.571903621826652 -90.6973732505248 0.710359881066223 -1.25968816655048 0.710359881066223 -1.25968816655049 0.573147308931215 -90.7890285335082 
5.35             0.577107039494402 -96.9119228951208 0.704412130876604 -7.459327658104  0.704412130876604 -7.459327658104  0.578329947405261 -97.0026521395865 
5.4              0.581769749118189 -103.103328551795 0.699059642270585 -13.6204950471441 0.699059642270585 -13.6204950471441 0.582960151643877 -103.190938155519 
5.45             0.585846518744016 -109.28268665845 0.694305605721549 -19.7465375434514 0.69430560572155 -19.7465375434514 0.586990965377394 -109.365798446425 
5.5              0.589267118161689 -115.460791776646 0.690157519449066 -25.839328669948 0.690157519449066 -25.8393286699479 0.590343791321488 -115.538970722126 
5.55             0.591938733980617 -121.64653220478 0.686646036536926 -31.8995899521082 0.686646036536926 -31.8995899521082 0.592909733723047 -121.719915406515 
5.6              0.593762484833597 -127.845628276257 0.68384050387831 -37.928649270628 0.683840503878311 -37.928649270628 0.594569920266014 -127.913921162956 
5.65             0.594658789873908 -134.060994085141 0.681844163819574 -43.9312566068426 0.681844163819575 -43.9312566068426 0.595231198858663 -134.12213852371 
5.7              0.594582033359098 -140.295034706366 0.680761507608151 -49.9175011726898 0.680761507608152 -49.9175011726898 0.59485411178363 -140.34440322205 
5.75             0.593509240178141 -146.552056485531 0.680656915932982 -55.9018548742142 0.680656915932982 -55.9018548742142 0.593449289083827 -146.583140646206 
5.8              0.591414980133557 -152.838453819225 0.681535747152099 -61.899768553919 0.681535747152098 -61.899768553919 0.59104773817813 -152.845401638005 
5.85             0.588261934252597 -159.160688019876 0.683357768104089 -67.9241613116375 0.68335776810409 -67.9241613116375 0.58767577723284 -159.142203752833 
5.9              0.584022098078885 -165.523430264178 0.68606945495283 -73.98324508702  0.68606945495283 -73.98324508702  0.583356246582265 -165.487189253784 
5.95             0.5787201233988  -171.930406168657 0.689645768532043 -80.0793996267019 0.689645768532043 -80.0793996267019 0.578132506142213 -171.897270839065 
6                0.572478604690662 -178.389775564627 0.694150771720331 -86.2087871903782 0.694150771720331 -86.2087871903782 0.572096636407827 -178.39720288797 
