! Touchstone file from project sampleWidthScale-5
! Exported from HFSS-IE 2014.0.2
! Variables:
!  $perm = 6
!  impedance = 157.9ohm
!  insulationThickness = 0in
!  length = 4in
!  portSize = 1mm
!  sampleSide = 0.625in
!  sampleThickness = 0.25in
!  scale = 5
!  spacing = 0.25in
!  wireDiam = 0.125in
!  wireRadius = 0.0625in
# GHZ S MA R 157.900000
! Terminal data exported
! Port[1] = Rectangle2_T1
! Port[2] = Rectangle2_T2
0.5              0.0761461326202966 -158.938151321894 0.996324237265785 -68.6798263494718 0.996324237265785 -68.6798263494718 0.0760167156548512 -159.056821177891 
0.55             0.0816631868381421 -166.588202320495 0.994673687719788 -75.5165529945115 0.994673687719788 -75.5165529945115 0.0818340982681115 -166.381765054552 
0.6              0.0875624383092392 -173.499980871366 0.993799061257351 -82.3722103477537 0.993799061257352 -82.3722103477537 0.0879137368003442 -173.219826592192 
0.65             0.0936389613031819 179.836670818937 0.993202037431535 -89.23757448205  0.993202037431535 -89.23757448205  0.0940442723215824 -179.94156818276 
0.7              0.0997255235319198 173.20540079052  0.992645625031069 -96.10514028108  0.992645625031071 -96.10514028108  0.100069381771432 173.317423750445 
0.75             0.10570715957164 166.526305254167 0.992033479102642 -102.970439206645 0.992033479102643 -102.970439206645 0.105900701022638 166.526068589196 
0.8              0.11152077068168 159.782112652228 0.991338093984917 -109.83174710986 0.991338093984917 -109.83174710986 0.111510196693278 159.693395025117 
0.85             0.117146606230453 152.981572615129 0.990560099158239 -116.689273154651 0.990560099158239 -116.689273154651 0.116915873339086 152.839578994151 
0.9              0.122598718590118 146.142391611375 0.989707126034331 -123.544278740487 0.989707126034331 -123.544278740487 0.12216861057492 145.983841946436 
0.95             0.12791757262502 139.283233076104 0.988785619466043 -130.398308049281 0.988785619466043 -130.398308049281 0.127342216828146 139.139216526722 
1                0.13316422858457 132.419048458264 0.987802230525724 -137.252675774687 0.987802230525724 -137.252675774687 0.132524509468874 132.309257972941 
1.05             0.138411546076051 125.55741457082  0.986771495919609 -144.108490279912 0.986771495919609 -144.108490279912 0.137802976764314 125.485421672984 
1.1              0.143725579724514 118.69775778426  0.985719447165788 -150.967578276442 0.985719447165788 -150.967578276442 0.143236879715314 118.648642943066 
1.15             0.149141985492806 111.840185564799 0.984659189737922 -157.833888252229 0.984659189737923 -157.833888252229 0.148823348823605 111.784021039793 
1.2              0.15468072629139 105.004441461423 0.983528303767083 -164.71244209349 0.983528303767083 -164.71244209349 0.1545131957354  104.90940274349  
1.25             0.160441306158393 98.2281450331067 0.982174206136219 -171.602837971062 0.982174206136221 -171.602837971062 0.160336398456137 98.0804834890926 
1.3              0.166654648943585 91.5135459829675 0.980506809900607 -178.494762922141 0.980506809900608 -178.494762922141 0.166504803034699 91.3297419112118 
1.35             0.173513158855566 84.7933028730684 0.97864808529607 174.622682042136 0.978648085296072 174.622682042136 0.1732603518939  84.6105273903006 
1.4              0.180987883804116 77.9904623100504 0.976810728698239 167.749169688882 0.976810728698239 167.749169688882 0.180650492217673 77.8439970838362 
1.45             0.188901757693838 71.0842009820671 0.975092536194367 160.875752785777 0.975092536194367 160.875752785777 0.188550957161775 70.9925964040126 
1.5              0.197097913247255 64.1032598745399 0.973446793842204 153.994102056392 0.973446793842205 153.994102056391 0.196820342095994 64.0672175550227 
1.55             0.205505642232946 57.0896046597925 0.97176469335238 147.100709849466 0.971764693352381 147.100709849466 0.205377846147805 57.0975485273388 
1.6              0.214120735861133 50.0768099647135 0.969942019760056 140.196177198062 0.969942019760056 140.196177198062 0.214197778234137 50.1108984671037 
1.65             0.222969255578119 43.0854808043584 0.967902922366139 133.283304431752 0.967902922366139 133.283304431752 0.223281916276437 43.1260184493841 
1.7              0.232082852817778 36.1257389459322 0.96560004925973 126.365699398358 0.965600049259729 126.365699398358 0.232638820233343 36.1540044414244 
1.75             0.241486488329919 29.2007807098906 0.963007798410197 119.447056590747 0.963007798410197 119.447056590747 0.242273184780563 29.2007230949298 
1.8              0.251193411391748 22.3096498667045 0.960115637424453 112.53085752668  0.960115637424453 112.53085752668  0.25218146429214 22.2688283922173 
1.85             0.261203502790852 15.4490747082625 0.956923175196835 105.620280232543 0.956923175196835 105.620280232543 0.262350487246846 15.3590858965091 
1.9              0.271502968109143 8.61463002424414 0.953436898987307 98.7182006522482 0.953436898987307 98.7182006522482 0.272757271872776 8.47117498642056 
1.95             0.282064532494578 1.80147812037406 0.949668153420783 91.8272309604758 0.949668153420783 91.8272309604758 0.283369260526942 1.60417285871252 
2                0.292847853897197 -4.9951417318342 0.945632006812986 84.9497702819788 0.945632006812986 84.9497702819788 0.294144703084595 -5.24313729699242 
2.05             0.303800109667388 -11.7795766457595 0.941346770187543 78.0880560674853 0.941346770187543 78.0880560674854 0.305033146784739 -12.0720512029888 
2.1              0.314856795148591 -18.5555215979227 0.93683401834964 71.2442089477461 0.93683401834964 71.2442089477462 0.315976077013278 -18.8837788188562 
2.15             0.325942791147336 -25.32584816675  0.932119006767512 64.4202651877187 0.932119006767513 64.4202651877188 0.326907777423681 -25.6793105841113 
2.2              0.336973753370198 -32.0924807563844 0.927231397325842 57.6181909643993 0.927231397325842 57.6181909643993 0.337756477105205 -32.4593069397747 
2.25             0.347857875428383 -38.8563045423773 0.922206212840447 50.8398721351581 0.922206212840448 50.8398721351582 0.348445848530373 -39.2240088900549 
2.3              0.358498096785747 -45.6170904925728 0.917084938052695 44.0870716411522 0.917084938052696 44.0870716411522 0.358896927524548 -45.9731703386805 
2.35             0.368794887429814 -52.373425226954 0.911916661966193 37.3613434558582 0.911916661966193 37.3613434558582 0.369030556477851 -52.7060177694539 
2.4              0.378649858871007 -59.122643589419 0.906759075085131 30.6638864977443 0.90675907508513 30.6638864977442 0.378770504567795 -59.4212556284674 
2.45             0.387970619751697 -65.860791018811 0.901678917192832 23.9953155352311 0.901678917192833 23.9953155352311 0.388047457409596 -66.1171657181024 
2.5              0.396677415356425 -72.5827099433112 0.896750993038154 17.3553267516004 0.896750993038154 17.3553267516004 0.396803951430477 -72.7919073309296 
2.55             0.404711812920118 -79.2824682615724 0.892054047713096 10.7422676425689 0.892054047713096 10.7422676425689 0.404999675910762 -79.444210758014 
2.6              0.412046178177525 -85.9545020481894 0.887660953843741 4.15273664290287 0.887660953843741 4.15273664290284 0.412614650547108 -86.0747032143412 
2.65             0.418688770411197 -92.5958236026394 0.883621576171964 -2.41840540216801 0.883621576171964 -2.41840540216802 0.419644058747683 -92.687857628615 
2.7              0.424673827828873 -99.2089024994656 0.879943520094904 -8.97694323746175 0.879943520094904 -8.97694323746174 0.426075491484352 -99.293508442807 
2.75             0.430028086991104 -105.802929556694 0.876590937228717 -15.5268171356188 0.876590937228717 -15.5268171356188 0.431848165132363 -105.905025919884 
2.8              0.434730933446591 -112.390024486289 0.873526994624459 -22.0678881181739 0.873526994624459 -22.0678881181739 0.436827580654433 -112.531395121427 
2.85             0.438718674312215 -118.977595417321 0.870780742909457 -28.5976493972316 0.870780742909457 -28.5976493972315 0.440856249620043 -119.167645139493 
2.9              0.441946183366596 -125.566086151929 0.86845156765815 -35.1170615585648 0.86845156765815 -35.1170615585648 0.443870544424596 -125.796530521017 
2.95             0.444423293637821 -132.156218222689 0.866619728626402 -41.6333977584111 0.866619728626402 -41.6333977584111 0.445951618921711 -132.404198592383 
3                0.446172518517856 -138.754674161721 0.865274640878472 -48.1559263506122 0.865274640878472 -48.1559263506122 0.447240769936332 -138.992128651755 
3.05             0.447180305515987 -145.370478995562 0.864342011102083 -54.6905695076156 0.864342011102083 -54.6905695076156 0.447831818633737 -145.573356457319 
3.1              0.447404499560604 -152.008918934348 0.863748598835518 -61.2391929591486 0.863748598835518 -61.2391929591486 0.447746301894066 -152.162052357764 
3.15             0.44681101373318 -158.669889795497 0.863452265615612 -67.8018942133306 0.863452265615612 -67.8018942133306 0.446969555769515 -158.767627596332 
3.2              0.445398579937389 -165.349853224546 0.863435595498378 -74.3789591649011 0.863435595498378 -74.3789591649011 0.445489282483718 -165.39445712539 
3.25             0.443203611769298 -172.044300209476 0.863689313081054 -80.971490542685 0.863689313081054 -80.971490542685 0.443314416731233 -172.04376357724 
3.3              0.44029463495924 -178.749334453546 0.864200765506002 -87.5812050760704 0.864200765506002 -87.5812050760704 0.440478966724279 -178.715362996551 
3.35             0.436764444232067 174.537558709835 0.864949917958573 -94.2100073600412 0.864949917958573 -94.2100073600412 0.437039508128619 174.591270656972 
3.4              0.432722772864437 167.817124394558 0.865910560075043 -100.859666602704 0.865910560075043 -100.859666602704 0.433070985000318 167.876437664946 
3.45             0.428288860081273 161.088054324904 0.867053920245674 -107.531727844974 0.867053920245674 -107.531727844974 0.428661884221496 161.139904775531 
3.5              0.423582082515412 154.34684454939  0.868351873711786 -114.227709208183 0.868351873711786 -114.227709208183 0.423908217635178 154.380822276559 
3.55             0.418709551911137 147.588241703208 0.869775953382409 -120.949558787575 0.869775953382409 -120.949558787575 0.418906083400031 147.598134888474 
3.6              0.413753610823506 140.807147817893 0.871287092414701 -127.700110210607 0.871287092414701 -127.700110210607 0.413745808646318 140.792028571568 
3.65             0.408771310640133 134.002677548381 0.872813946986321 -134.482769528897 0.872813946986321 -134.482769528897 0.408517682367835 133.966626106919 
3.7              0.403826712858261 127.18275266049  0.874234074604689 -141.299290995743 0.874234074604689 -141.299290995743 0.403343722138779 127.131960565106 
3.75             0.399058346609259 120.362766757604 0.875400324773253 -148.145926338275 0.875400324773253 -148.145926338275 0.398427344692518 120.299435431243 
3.8              0.394714140734866 113.551942606952 0.876240384889326 -155.012542022667 0.876240384889324 -155.012542022667 0.394049472398785 113.46720881417  
3.85             0.391055859852429 106.737735657071 0.876839476615981 -161.890116395367 0.876839476615981 -161.890116395367 0.390435686899982 106.609357329719 
3.9              0.388198587353455 99.8926442699391 0.877353940055942 -168.780715111718 0.877353940055942 -168.780715111718 0.387601076812975 99.691699302315  
3.95             0.386096738353863 93.0001273860354 0.87782028291563 -175.696198757157 0.87782028291563 -175.696198757157 0.38538965315628 92.7031995731815 
4                0.38468674455345 86.0664810354588 0.878095136361212 177.353090946251 0.878095136361212 177.353090946251 0.383671786619547 85.6653584622969 
4.05             0.38399195679185 79.1096007037654 0.877960166611442 170.365726967161 0.877960166611442 170.36572696716  0.382468003712901 78.6144733621211 
4.1              0.384110727079952 72.1442778926094 0.877238198514603 163.34791581629  0.877238198514603 163.34791581629  0.38192619698578 71.5816297612319 
4.15             0.38515567349379 65.1767821693148 0.875834598135154 156.308847637846 0.875834598135155 156.308847637846 0.382241632915972 64.5845390891635 
4.2              0.387208442342692 58.2068584626204 0.873724078414742 149.25725228535  0.873724078414741 149.25725228535  0.383595647759287 57.6284546557751 
4.25             0.390303153608044 51.2318428297935 0.870922816620208 142.199965285816 0.87092281662021 142.199965285816 0.386127324109991 50.7099370225049 
4.3              0.394428599524911 44.2500123932967 0.867465167581146 135.141712628207 0.867465167581145 135.141712628206 0.389925389570386 43.8202237037158 
4.35             0.399538819136245 37.2624480076416 0.863387900392852 128.085378342589 0.863387900392853 128.085378342589 0.39502713573217 36.94754920632   
4.4              0.405566257561959 30.2735197061062 0.858719497460324 121.032435442809 0.858719497460322 121.032435442809 0.401417254866092 30.078811258744  
4.45             0.412434458417486 23.2902548591564 0.853472490009905 113.983511201936 0.853472490009902 113.983511201935 0.40902462561707 23.2011701999694 
4.5              0.420067723619793 16.320875218544  0.847639148213271 106.93916289981  0.847639148213271 106.93916289981  0.417718745983706 16.3040029558625 
4.55             0.428394845966578 9.37292422772095 0.84119311403865 99.9008804424277 0.84119311403865 99.9008804424278 0.427310166875829 9.38125441193174 
4.6              0.437344661790481 2.45163432130837 0.834100155914434 92.8721451399531 0.834100155914433 92.8721451399531 0.437560130321078 2.43370514378486 
4.65             0.446833995286057 -4.4407184113786 0.826338780821361 85.8591763189857 0.826338780821361 85.8591763189857 0.448202021588892 -4.5297591985119 
4.7              0.456752766554296 -11.3040467986012 0.817926379997112 78.8709991264827 0.817926379997113 78.8709991264829 0.458971030825962 -11.4927506803832 
4.75             0.466953414880117 -18.1386134829898 0.808942015939301 71.9188205988789 0.8089420159393  71.9188205988794 0.469632032231035 -18.4340518850862 
4.8              0.477249673511285 -24.9432420015337 0.799535890221218 65.0152799130555 0.799535890221219 65.015279913056  0.47999466551577 -25.3316755833699 
4.85             0.487425382726708 -31.7149363196024 0.789915936681848 58.1744642133925 0.789915936681846 58.1744642133928 0.489911842815895 -32.1672836181001 
4.9              0.497254570363637 -38.4506507932564 0.780299107399218 51.4128301797514 0.780299107399212 51.4128301797521 0.499271551720653 -38.9302122182857 
4.95             0.506541168529302 -45.1500449395211 0.770822140269785 44.7484882578361 0.770822140269775 44.7484882578376 0.508004211848415 -45.6199342258544 
5                0.515176727560981 -51.8150572060493 0.761468645975128 38.1941660349044 0.761468645975103 38.1941660349044 0.516114261922653 -52.2437912255778 
5.05             0.523163467378684 -58.4436602830355 0.752139340882501 31.7466922233852 0.752139340882476 31.7466922233847 0.523687328987223 -58.8085027723752 
5.1              0.530551761004664 -65.0252947400631 0.742839163651039 25.3875715247071 0.742839163651033 25.3875715247068 0.530821913626294 -65.313647091752 
5.15             0.537363546515765 -71.5457860912546 0.733741276377823 19.0962555957418 0.733741276377816 19.0962555957417 0.537554105742527 -71.755093537239 
5.2              0.543587690586593 -77.9950167766104 0.725082496920462 12.8591181915151 0.725082496920458 12.8591181915148 0.54385709186381 -78.1316086975856 
5.25             0.549215184786755 -84.3696729618019 0.717060933797776 6.6684343544068  0.717060933797775 6.66843435440662 0.549681054204876 -84.4468473802471 
5.3              0.554260679442538 -90.6725397786985 0.70980582947825 0.518433735484853 0.70980582947825 0.518433735484832 0.554980173991909 -90.7080452211335 
5.35             0.558761221474847 -96.9116122907351 0.703384048202733 -5.59695655334283 0.703384048202734 -5.59695655334279 0.559718975924205 -96.9245642569563 
5.4              0.562759225215171 -103.099845794297 0.697811447295483 -11.6843068660203 0.697811447295483 -11.6843068660202 0.56386701034486 -103.107163461464 
5.45             0.566273818799929 -109.254731257496 0.693064252992992 -17.7494998503316 0.693064252992993 -17.7494998503315 0.567387720648154 -109.267502539309 
5.5              0.569266882166859 -115.396256284358 0.689099112512455 -23.7960002110904 0.689099112512456 -23.7960002110903 0.570226549170705 -115.417068146574 
5.55             0.571623093542917 -121.542241740207 0.685888895264722 -29.8240490117197 0.685888895264723 -29.8240490117196 0.572308983620767 -121.565150358759 
5.6              0.573174303312552 -127.702415900877 0.683461852276219 -35.8326899621413 0.683461852276219 -35.8326899621413 0.573561539381718 -127.716991953662 
5.65             0.573777179851856 -133.875986617971 0.681906193561282 -41.8247019252521 0.681906193561283 -41.8247019252521 0.573949582340057 -133.874772388247 
5.7              0.573393268982573 -140.057011829029 0.681314113923964 -47.8103759361877 0.681314113923964 -47.8103759361877 0.573491618279014 -140.04236971652 
5.75             0.572092601072141 -146.244682492624 0.681706331700176 -53.8051666470071 0.681706331700176 -53.8051666470071 0.57221632192418 -146.229473470283 
5.8              0.569970178462027 -152.449563788916 0.683017956008356 -59.8225356734535 0.683017956008356 -59.8225356734535 0.570100061367765 -152.449205197259 
5.85             0.567051819245352 -158.690780764562 0.685165452856122 -65.8693073076174 0.685165452856122 -65.8693073076174 0.567065594794738 -158.710831955901 
5.9              0.563264840838836 -164.98729140521 0.688127707063731 -71.9483520417855 0.688127707063731 -71.9483520417855 0.563059097645389 -165.016514554528 
5.95             0.558499661672354 -171.349628823935 0.691955460456621 -78.0661442064599 0.691955460456621 -78.0661442064599 0.558119899344818 -171.368291887771 
6                0.552750053217296 -177.780426296135 0.696677677907847 -84.2361306149556 0.696677677907847 -84.2361306149556 0.552334917321903 -177.779041497629 
