! Touchstone file from project sampleWidthScale-2
! Exported from HFSS-IE 2014.0.2
! Variables:
!  $perm = 6
!  impedance = 157.9ohm
!  insulationThickness = 0in
!  length = 4in
!  portSize = 1mm
!  sampleSide = 0.25in
!  sampleThickness = 0.25in
!  scale = 2
!  spacing = 0.25in
!  wireDiam = 0.125in
!  wireRadius = 0.0625in
# GHZ S MA R 157.900000
! Terminal data exported
! Port[1] = Rectangle2_T1
! Port[2] = Rectangle2_T2
0.5              0.0505782668223715 -157.305982405387 0.998063415811934 -67.1940946720246 0.998063415811934 -67.1940946720246 0.050587820464695 -157.755468172842 
0.55             0.054372869552331 -164.197093641052 0.997593701682009 -73.89993321708  0.997593701682009 -73.89993321708  0.0544612363903932 -164.583889691237 
0.6              0.0582482632407668 -170.907692817811 0.997209690706919 -80.620326728987 0.997209690706919 -80.620326728987 0.0583171558886948 -171.239540917858 
0.65             0.0620195370809607 -177.599376335695 0.996798204865846 -87.3450622522387 0.996798204865845 -87.3450622522387 0.0620345082842884 -177.873183653943 
0.7              0.0655933191351614 175.689114544341 0.996338083557206 -94.0685918359249 0.996338083557206 -94.0685918359249 0.0655605990841368 175.472128968682 
0.75             0.0689425025444547 168.959978657568 0.995843335350739 -100.788726388813 0.995843335350739 -100.788726388813 0.068889153622375 168.790085802838 
0.8              0.0720826133737304 162.22409576029  0.995335419127041 -107.505391391562 0.995335419127041 -107.505391391562 0.0720407245052535 162.084283595158 
0.85             0.0750541133287572 155.490678468459 0.994830930349238 -114.219678859806 0.994830930349238 -114.219678859806 0.075049013007466 155.36027742037  
0.9              0.0779109661270077 148.765431334324 0.994336852162865 -120.933179362213 0.994336852162864 -120.933179362213 0.0779532015800944 148.624825036172 
0.95             0.0807144883896677 142.051338450294 0.99384939575718 -127.647498986183 0.99384939575718 -127.647498986183 0.0807954928066397 141.887251063457 
1                0.0835313341312271 135.349360410106 0.993355104526826 -134.36385733987 0.993355104526827 -134.36385733987 0.0836232431532203 135.160471088479 
1.05             0.0864340675733353 128.657298372724 0.992835127584438 -141.082706531889 0.992835127584438 -141.082706531889 0.0864950867312451 128.459699681033 
1.1              0.0895006757951247 121.965518467096 0.992275383278869 -147.803464615856 0.992275383278869 -147.803464615856 0.0894884693249992 121.796481339409 
1.15             0.0928045842608163 115.250638642831 0.991683857668973 -154.524801450026 0.991683857668973 -154.524801450026 0.0926997614871093 115.166929113196 
1.2              0.0963848894312169 108.476139996842 0.991103930532946 -161.246198090329 0.991103930532946 -161.246198090329 0.0962207956236483 108.541039594008 
1.25             0.100209438472358 101.616849314471 0.99059072406054 -167.970442076243 0.990590724060539 -167.970442076243 0.10009023656203 101.873504647637 
1.3              0.104195680352978 94.7021826198141 0.990136365690226 -174.703579805722 0.990136365690228 -174.703579805722 0.104274659488891 95.1450724291408 
1.35             0.108326524670779 87.8175814888887 0.989632503281309 178.550547698287 0.989632503281308 178.550547698287 0.108740313531513 88.3865193236937 
1.4              0.112727418317428 81.0314362144455 0.988961335647912 171.794813205325 0.988961335647912 171.794813205325 0.113531493686768 81.6386780478899 
1.45             0.117578397871403 74.3383984529213 0.988097574884175 165.035180726195 0.988097574884174 165.035180726195 0.118734753274092 74.9076665238296 
1.5              0.122989447422657 67.6868576801032 0.987086879998143 158.274954963344 0.987086879998143 158.274954963344 0.124402804934032 68.1753947623803 
1.55             0.128979345881857 61.0306828946317 0.985972529411423 151.513939291305 0.985972529411422 151.513939291305 0.130542269139716 61.4282745497617 
1.6              0.135519718001825 54.3484988605439 0.984763599064622 144.750596975437 0.984763599064621 144.750596975437 0.13714132013741 54.6655534482219 
1.65             0.142572211186969 47.6376389723188 0.983441784194064 137.983754204453 0.983441784194064 137.983754204453 0.144189142569293 47.8933880617237 
1.7              0.150102048302022 40.9037960733841 0.98197670436242 131.213149358436 0.98197670436242 131.213149358436 0.151679069657253 41.1184426630824 
1.75             0.158078231642007 34.1545422807444 0.980336512758395 124.439377897636 0.980336512758395 124.439377897636 0.159604331793822 34.3450819175773 
1.8              0.166469906463417 27.3966289694932 0.978493184058233 117.663686096828 0.978493184058233 117.663686096828 0.167952991908096 27.5751174781449 
1.85             0.175242931265028 20.6353336848681 0.976424784213708 110.887786060621 0.976424784213709 110.887786060621 0.176704296444788 20.808591764457  
1.9              0.184357663183714 13.8746325854503 0.974116468612737 104.11372050233  0.974116468612737 104.11372050233  0.185826665358407 14.0447455949441 
1.95             0.193767924322513 7.11759858713018 0.971561062712334 97.3437619577842 0.971561062712334 97.3437619577842 0.19527703209673 7.28283080646108 
2                0.203420902853705 0.366782469693866 0.968759528631797 90.5803262888429 0.968759528631796 90.5803262888429 0.205001240360872 0.522677930068467 
2.05             0.213257768519056 -6.37550327750343 0.965721356339922 83.82588550848   0.965721356339923 83.82588550848   0.21493529087803 -6.23497469064419 
2.1              0.223214840423834 -13.1070139115514 0.96246480532578 77.0828707677614 0.96246480532578 77.0828707677614 0.225007295434309 -12.9883547026552 
2.15             0.233225184779527 -19.825510243137 0.959016876401347 70.3535608404124 0.959016876401348 70.3535608404124 0.235140025801252 -19.7346941725044 
2.2              0.243220536324837 -26.5287970382309 0.955412869085574 63.6399548277795 0.955412869085574 63.6399548277795 0.245253952136303 -26.4704026743713 
2.25             0.253133429659378 -33.2148598985019 0.951695353403002 56.9436309243036 0.951695353403002 56.9436309243035 0.255270653976007 -33.1913596045277 
2.3              0.262899385708913 -39.8821091148268 0.947912340253045 50.2655973142539 0.947912340253046 50.2655973142539 0.265116446903667 -39.8933301398362 
2.35             0.272458892999796 -46.5297520775018 0.944114365589632 43.6061491339827 0.944114365589633 43.6061491339827 0.274725963202268 -46.5725336932834 
2.4              0.281758689047595 -53.1583246661024 0.940350132014355 36.9647615817872 0.940350132014355 36.9647615817872 0.284045176640457 -53.2264176888458 
2.45             0.290751384376643 -59.7703955841718 0.93666038409929 30.3400810844134 0.93666038409929 30.3400810844134 0.293032836528997 -59.8546931125143 
2.5              0.29939170429241 -66.3713618209416 0.93307015224229 23.7301312708638 0.93307015224229 23.7301312708638 0.301658326960573 -66.4606152382416 
2.55             0.307626781224734 -72.9699683998696 0.92958112265607 17.132919038325  0.92958112265607 17.1329190383251 0.309892698954816 -73.052218612307 
2.6              0.315378380317831 -79.5775736284188 0.926169824986879 10.5476291583099 0.92616982498688 10.5476291583099 0.317689265761112 -79.6425569096833 
2.65             0.322520595527214 -86.2043599741754 0.922803602610426 3.97628444616623 0.922803602610425 3.97628444616629 0.324954731507551 -86.2469778475829 
2.7              0.328873008489656 -92.8509001983223 0.919488130049882 -2.57528093063798 0.919488130049882 -2.57528093063792 0.331528046225287 -92.8752085532295 
2.75             0.334250581027162 -99.4978661473225 0.916336645771795 -9.09979194778911 0.916336645771796 -9.099791947789  0.337209040462302 -99.5197685719896 
2.8              0.338591829937806 -106.106298493961 0.913588613759545 -15.5960542863938 0.913588613759546 -15.5960542863936 0.341869520193655 -106.151814709307 
2.85             0.342071079458218 -112.642464513046 0.911481939899198 -22.0763605049138 0.911481939899199 -22.0763605049138 0.345574885223687 -112.73917164578 
2.9              0.345009334529208 -119.113468382232 0.910043080171729 -28.5622571115383 0.910043080171731 -28.5622571115382 0.348543293232164 -119.277609254831 
2.95             0.347600358949111 -125.569987461187 0.909049656169513 -35.0689211042712 0.909049656169516 -35.0689211042711 0.350930968731442 -125.797649340173 
3                0.349759106094113 -132.066890429225 0.90823451652921 -41.596130374857 0.908234516529211 -41.596130374857 0.35269889962273 -132.335861114618 
3.05             0.351240240281913 -138.628610330984 0.907475557884786 -48.1345994074089 0.907475557884787 -48.1345994074089 0.353697101997837 -138.908139359413 
3.1              0.351830538045026 -145.248990308477 0.906800735447029 -54.676424598566 0.90680073544703 -54.676424598566 0.3538092020813  -145.509837247115 
3.15             0.351433725896653 -151.908916716742 0.906294107793335 -61.2193825610074 0.906294107793335 -61.2193825610074 0.353009304504166 -152.129471548907 
3.2              0.350056180646861 -158.590011512909 0.906022804967185 -67.7657028393752 0.906022804967186 -67.7657028393752 0.35134142395323 -158.758659348544 
3.25             0.347764915936652 -165.279550258717 0.90601380932903 -74.3194411521026 0.90601380932903 -74.3194411521026 0.348881399741646 -165.394830917873 
3.3              0.344655874473057 -171.970387198447 0.906260019926094 -80.8846233163454 0.906260019926094 -80.8846233163454 0.345711030720353 -172.04006681013 
3.35             0.340837565594625 -178.659518846979 0.906734604835287 -87.4644394006762 0.906734604835287 -87.4644394006762 0.341906682350031 -178.699019734928 
3.4              0.336424058621309 174.653110463844 0.907403734607501 -94.0611482427258 0.907403734607501 -94.0611482427257 0.337536414394588 174.622896141837 
3.45             0.331531306302057 167.965231501606 0.908234775551257 -100.676362850711 0.908234775551257 -100.67636285071 0.332660528475091 167.920925819553 
3.5              0.326273026997209 161.272506739496 0.909199338034151 -107.311516488366 0.909199338034151 -107.311516488366 0.32733298765821 161.192307552629 
3.55             0.320754284443427 154.568890176326 0.910270425135356 -113.968379380508 0.910270425135356 -113.968379380507 0.321603603734607 154.438014266376 
3.6              0.315062902194143 147.847872155577 0.911411767672923 -120.649441969791 0.911411767672922 -120.649441969791 0.315524143928008 147.665522408698 
3.65             0.30926322229412 141.105797298069 0.912557060638762 -127.357696680277 0.912557060638762 -127.357696680277 0.309167908500228 140.892974177096 
3.7              0.303407341362869 134.348134904409 0.913583879377323 -134.094704175321 0.913583879377323 -134.094704175321 0.302683186198752 134.1527210505   
3.75             0.297593526229254 127.595078892485 0.914321165830182 -140.855413745889 0.914321165830181 -140.855413745889 0.296399118151693 127.482800142384 
3.8              0.292069385394895 120.868641234559 0.914701352016284 -147.622452457726 0.914701352016284 -147.622452457726 0.290890864745551 120.877721143832 
3.85             0.287168994649899 114.143689707835 0.915068777275642 -154.37907185815 0.915068777275642 -154.37907185815 0.2865800738828  114.208812551091 
3.9              0.282850396610844 107.352676647901 0.915931792033049 -161.150111830394 0.91593179203305 -161.150111830394 0.28285774578931 107.324682603334 
3.95             0.278773064926155 100.531009071446 0.916920784290698 -167.981197003412 0.916920784290698 -167.981197003412 0.278790597248019 100.344962870113 
4                0.275185828317195 93.7867281297173 0.917245557175946 -174.860178651835 0.917245557175945 -174.860178651835 0.274832182808182 93.497643707844  
4.05             0.272679323382289 87.1234023344388 0.916859104273504 178.252219855597 0.916859104273504 178.252219855597 0.271991200634147 86.7914726797571 
4.1              0.271514969611921 80.4701247626032 0.916126758742636 171.36759220082  0.916126758742636 171.36759220082  0.27063721061356 80.1116645908949 
4.15             0.271653610207718 73.7747676927049 0.915249942005149 164.476006293554 0.91524994200515 164.476006293554 0.270651829530905 73.3830969048429 
4.2              0.272997189927642 67.0227888323998 0.914197708812005 157.566052816344 0.914197708812005 157.566052816344 0.271853851760954 66.5934170546204 
4.25             0.275490357335798 60.2189752798714 0.912834935762505 150.632575252255 0.912834935762506 150.632575252255 0.27415772632621 59.7590371797283 
4.3              0.279116369366956 53.3720483146301 0.911018022288005 143.676164953028 0.911018022288005 143.676164953028 0.277559832955056 52.8988411597788 
4.35             0.283868296465027 46.4889561433447 0.908631213345464 136.700842558135 0.908631213345464 136.700842558135 0.282087176289288 46.0245585613558 
4.4              0.289727684984504 39.5745416482464 0.905591912883983 129.712333608664 0.905591912883984 129.712333608664 0.287758665775527 39.1403956417981 
4.45             0.296654272732914 32.6328309091396 0.901846547436386 122.717161789915 0.901846547436386 122.717161789915 0.294564647584777 32.2458148248845 
4.5              0.30458314621666 25.6682878223798 0.897365924994384 115.722245549137 0.897365924994384 115.722245549137 0.302459242243618 25.3386183420145 
4.55             0.313426010115473 18.6865703808775 0.892142307418278 108.734717621072 0.892142307418278 108.734717621072 0.311360255657354 18.4173370400102 
4.6              0.323074612876207 11.6947806600037 0.886187972460882 101.761807515768 0.886187972460883 101.761807515768 0.321153393017872 11.482698411695  
4.65             0.333405290332509 4.70132906502234 0.879534470126869 94.8107145729108 0.879534470126869 94.8107145729108 0.331698885537515 4.53824273709494 
4.7              0.344284024173962 -2.28445195977079 0.87223184075554 87.8884488902622 0.872231840755541 87.8884488902622 0.342839352262729 -2.40973285044259 
4.75             0.355571579952961 -9.25282751270953 0.864347292512746 81.0016434472412 0.864347292512746 81.0016434472412 0.354408052067393 -9.352690161295  
4.8              0.36712835231429 -16.1942206109726 0.855963086686228 74.1563535850899 0.855963086686228 74.1563535850899 0.366236854065908 -16.2806238554246 
4.85             0.378818589599143 -23.0997450182925 0.847173605089282 67.3578651712245 0.847173605089282 67.3578651712245 0.378163382492885 -23.1829269299869 
4.9              0.390513731665173 -29.9616635453342 0.838081755638571 60.6105329479447 0.83808175563857 60.6105329479447 0.390036920367986 -30.0492270039734 
4.95             0.402094680450718 -36.7737425988913 0.828794998222374 53.9176673235559 0.828794998222374 53.9176673235559 0.401722793621353 -36.8701177832313 
5                0.413452924987873 -43.5314874825445 0.81942133975882 47.2814824666287 0.81942133975882 47.2814824666288 0.413105094504125 -43.6377477353386 
5.05             0.424490550161883 -50.2322524305989 0.810065661579219 40.7031120911195 0.810065661579219 40.7031120911196 0.424087725032533 -50.346255020081 
5.1              0.435119265432336 -56.8752246237299 0.800826720010573 34.1826924529601 0.800826720010573 34.1826924529601 0.434593836199806 -56.9920535959979 
5.15             0.44525870089641 -63.4612831878651 0.791795121641348 27.7195047675429 0.791795121641348 27.7195047675429 0.44456380510902 -63.5739810702379 
5.2              0.454834352838766 -69.9927345062565 0.783052531209209 21.3121603584422 0.783052531209209 21.3121603584422 0.453951944403719 -70.0933159044102 
5.25             0.463775747308035 -76.4729293342519 0.774672311117565 14.9587991852803 0.774672311117565 14.9587991852804 0.462722208629727 -76.5536629216185 
5.3              0.472015639957344 -82.9057859299416 0.766721658929335 8.65725389001164 0.766721658929335 8.65725389001164 0.470843295441638 -82.9606972897273 
5.35             0.479491304340131 -89.2952945293256 0.759264975946281 2.40510941896833 0.759264975946281 2.40510941896835 0.478283762816985 -89.3217590018353 
5.4              0.486148859184274 -95.6451796153039 0.752367508390109 -3.80042115729986 0.752367508390109 -3.80042115729982 0.485008026950468 -95.6453173256042 
5.45             0.491950429174059 -101.959029961832 0.746097299276351 -9.96283904115411 0.746097299276352 -9.96283904115413 0.490974092925971 -101.940382869023 
5.5              0.496880882793047 -108.241239725915 0.74052298639663 -16.0868019203571 0.74052298639663 -16.0868019203571 0.496133193123263 -108.215991548959 
5.55             0.500946663283692 -114.498735363841 0.735706918549145 -22.1783221566506 0.735706918549145 -22.1783221566506 0.500430376249166 -114.48080810634 
5.6              0.504159005918786 -120.742495787871 0.731698506535584 -28.2443715613418 0.731698506535583 -28.2443715613418 0.503805507448862 -120.742663333568 
5.65             0.50650532032219 -126.987033454921 0.728536405044228 -34.2921492664324 0.728536405044228 -34.2921492664324 0.50619808761149 -127.007846814641 
5.7              0.507930948385061 -133.247053577903 0.726259297049766 -40.3290520168254 0.726259297049766 -40.3290520168254 0.507561274944984 -133.280797627739 
5.75             0.508352796689254 -139.533473090312 0.724908074208738 -46.3638157960243 0.724908074208738 -46.3638157960243 0.507879254689035 -139.565598302999 
5.8              0.507696297410654 -145.852034781238 0.724505202326222 -52.407364082766 0.724505202326223 -52.4073640827661 0.507166727126042 -145.869198178935 
5.85             0.505927208909116 -152.204793522213 0.725025034539492 -58.4714737903465 0.725025034539492 -58.4714737903465 0.505440155861525 -152.203504486946 
5.9              0.503068574383163 -158.592133977134 0.726382275371077 -64.5654005097902 0.726382275371077 -64.5654005097902 0.502683405701009 -158.583625357335 
5.95             0.499218048903025 -165.014234693049 0.728449341039755 -70.6920495619087 0.728449341039755 -70.6920495619087 0.498843348755153 -165.022970147791 
6                0.494579232027876 -171.473581751097 0.731099079968966 -76.8446550682755 0.731099079968966 -76.8446550682755 0.493872844711319 -171.528656179968 
