! Touchstone file from project sampleWidthScale-15
! Exported from HFSS-IE 2014.0.2
! Variables:
!  $perm = 6
!  impedance = 157.9ohm
!  insulationThickness = 0in
!  length = 4in
!  portSize = 1mm
!  sampleSide = 1.875in
!  sampleThickness = 0.25in
!  scale = 15
!  spacing = 0.25in
!  wireDiam = 0.125in
!  wireRadius = 0.0625in
# GHZ S MA R 157.900000
! Terminal data exported
! Port[1] = Rectangle2_T1
! Port[2] = Rectangle2_T2
0.5              0.0836694602338587 -158.892798318359 0.99586241161186 -69.1369938930673 0.995862411611861 -69.1369938930673 0.0837391322378496 -159.735177789987 
0.55             0.0896594621041293 -166.373587347278 0.993967562712602 -75.9939621908382 0.993967562712601 -75.9939621908382 0.0900909936464213 -167.315376489588 
0.6              0.0961783239893038 -173.255717534944 0.992955853151945 -82.8843945543769 0.992955853151946 -82.8843945543769 0.0967439260104644 -174.267762767372 
0.65             0.102922917129197 -179.980041651308 0.992253916911338 -89.7943281772977 0.992253916911339 -89.7943281772977 0.103469081864293 178.976878366315 
0.7              0.10965884809128 173.275847905721 0.9915860495561  -96.7122351164335 0.991586049556101 -96.7122351164335 0.110095458311328 172.241590100946 
0.75             0.116234323037432 166.460308816153 0.990840321741642 -103.630471424814 0.990840321741642 -103.630471424814 0.116521659466731 165.46913018515  
0.8              0.122573329057132 159.574638712692 0.989987605582182 -110.544972824754 0.989987605582182 -110.544972824754 0.122709213028135 158.65288374803  
0.85             0.128659520170051 152.638421309343 0.98903445922026 -117.454376867372 0.98903445922026 -117.454376867372 0.128667714962932 151.804300163196 
0.9              0.134520053888196 145.674784680562 0.987997003799603 -124.359060352035 0.987997003799603 -124.359060352035 0.134439980212161 144.938887042652 
0.95             0.140213780571099 138.704753644445 0.986887928476675 -131.260249193322 0.986887928476674 -131.260249193322 0.140090943095332 138.070725460435 
1                0.145824802735512 131.744692805451 0.985712917203068 -138.159235177079 0.985712917203068 -138.159235177079 0.145700985650896 131.210105550251 
1.05             0.151458901344391 124.803317230984 0.984476048311571 -145.056797369673 0.98447604831157 -145.056797369673 0.151361367494139 124.361292095538 
1.1              0.157234075733571 117.876988491885 0.983193415170992 -151.953211107017 0.983193415170992 -151.953211107017 0.157164625351777 117.519598624445 
1.15             0.163251328980489 110.947259116616 0.981903304277093 -158.849447832329 0.981903304277093 -158.849447832329 0.163180434833056 110.671428109884 
1.2              0.169551006775498 103.991210784535 0.980643297901622 -165.749053545372 0.980643297901622 -165.749053545372 0.16942722576315 103.805292862022 
1.25             0.176112170580872 97.0047073518321 0.979390715234611 -172.657469462194 0.979390715234611 -172.657469462194 0.175891506442832 96.9299130545155 
1.3              0.182930284561358 90.0083780453174 0.978051026356334 -179.577355147276 0.978051026356334 -179.577355147276 0.182607504278611 90.0705523100223 
1.35             0.190068618836255 83.0217731432699 0.976540187294237 173.493666751451 0.976540187294237 173.493666751451 0.189681709726105 83.2389275938302 
1.4              0.197608650095343 76.0456147873459 0.974840241370218 166.559303353125 0.974840241370218 166.559303353125 0.19721537504227 76.4215657199538 
1.45             0.205594566984733 69.0712903914419 0.972965721086118 159.621274286487 0.972965721086118 159.621274286487 0.205246322027042 69.5977368429487 
1.5              0.21403314666747 62.0931790108946 0.97091997936063 152.679686238702 0.97091997936063 152.679686238702 0.213762316428703 62.755054565736  
1.55             0.222913962120145 55.1110518376203 0.968686374431007 145.734527520779 0.968686374431007 145.734527520779 0.222733130151256 55.8908535248481 
1.6              0.232220706645575 48.1277247290683 0.966237745165818 138.786436890661 0.966237745165818 138.786436890661 0.23212696130849 49.0078695424891 
1.65             0.241933120542061 41.1469135429637 0.963546096479981 131.836789771079 0.963546096479981 131.836789771079 0.241913183107059 42.1107064321868 
1.7              0.252025605083854 34.1722617272104 0.960588015628592 124.887533907267 0.960588015628594 124.887533907267 0.252060235701998 35.2041569245268 
1.75             0.262465793216174 27.2070898627397 0.957346975334354 117.941001792708 0.957346975334355 117.941001792708 0.262533220407366 28.2926599322779 
1.8              0.273213924499487 20.2544179740828 0.953814107259517 110.999760922767 0.953814107259517 110.999760922767 0.273292431036005 21.3802289675192 
1.85             0.284222973723376 13.3170401426555 0.94998834295345 104.066501256269 0.949988342953451 104.066501256269 0.284292815091966 14.4705148968397 
1.9              0.295439307773878 6.39757548275896 0.94587629871597 97.1439471562671 0.945876298715971 97.1439471562671 0.295484095725267 7.56687417123035 
1.95             0.306803676630902 -0.501518406096914 0.941492027478214 90.2347834284415 0.941492027478214 90.2347834284415 0.306811313947951 0.672407001218707 
2                0.318252400855527 -7.377962854686  0.936856663138504 83.3415893330427 0.936856663138505 83.3415893330427 0.318215622725241 -6.2100358127776 
2.05             0.329718659388532 -14.229695573217 0.931997955118066 76.4667775832767 0.931997955118067 76.4667775832767 0.329635220443532 -13.0778689500831 
2.1              0.341133807777824 -21.0549184509965 0.926949689776378 69.6125371729368 0.926949689776379 69.6125371729367 0.341006346973083 -19.9288021285246 
2.15             0.352428674704929 -27.8521484561479 0.921751001661438 62.7807797699173 0.921751001661439 62.7807797699173 0.352264288244895 -26.7608753936417 
2.2              0.363534798891908 -34.6202669076674 0.916445583275182 55.9730897233574 0.916445583275182 55.9730897233574 0.363344351290391 -33.5724945628206 
2.25             0.374385581344504 -41.3585648581163 0.91108080336412 49.1906777266993 0.911080803364121 49.1906777266993 0.374182784562101 -40.3624634314164 
2.3              0.384917338831957 -48.066784943693 0.905706738428115 42.4343380986843 0.905706738428116 42.4343380986843 0.384717628787169 -47.1300115472368 
2.35             0.39507024965842 -54.7451630893238 0.900375108709676 35.7044098074263 0.900375108709676 35.7044098074263 0.39488948949295 -53.8748187041757 
2.4              0.404789173059538 -61.3944769928177 0.895138088404457 29.0007423273295 0.895138088404458 29.0007423273295 0.404642217608198 -60.5970397940038 
2.45             0.414024282724923 -68.0161114667482 0.890046937264072 22.3226701094972 0.890046937264073 22.3226701094972 0.413923458645702 -67.2973354620166 
2.5              0.422731359939169 -74.6121501393467 0.885150402140861 15.669005111203  0.885150402140861 15.669005111203  0.422684970996543 -73.9769124309254 
2.55             0.430871434009157 -81.1854897410695 0.880492928002969 9.03806567807491 0.880492928002968 9.03806567807493 0.430882525422473 -80.6375657392208 
2.6              0.438409321957523 -87.7399313087983 0.876113012791635 2.42776642305346 0.876113012791635 2.42776642305346 0.438475171458249 -87.2816835876925 
2.65             0.445310856948531 -94.2801240173474 0.872042583615177 -4.1642239710901 0.872042583615177 -4.1642239710901 0.445423988530527 -93.9121270128249 
2.7              0.451539866476178 -100.811185125156 0.868308546309758 -10.740329150911 0.868308546309758 -10.740329150911 0.451691559594683 -100.531902162495 
2.75             0.457058145322609 -107.338012968883 0.864935975481196 -17.3031070908673 0.864935975481196 -17.3031070908673 0.457244724652564 -107.143787661738 
2.8              0.461831063415228 -113.864891232345 0.861947929957836 -23.8555884252398 0.861947929957836 -23.8555884252398 0.462060872006194 -113.750571218221 
2.85             0.465833147863072 -120.396140854279 0.8593566606906  -30.4014357735917 0.859356660690601 -30.4014357735918 0.466129063165591 -120.356338728668 
2.9              0.469042312673443 -126.93702571309 0.857155044597616 -36.9441810220999 0.857155044597615 -36.9441810220999 0.469435401580979 -126.967355198541 
2.95             0.471428232893223 -133.492912865129 0.855326189801032 -43.486123028172 0.855326189801032 -43.4861230281719 0.471945029866886 -133.590278970128 
3                0.472955763327819 -140.067222726788 0.853864604061256 -50.0284953778296 0.853864604061255 -50.0284953778296 0.473607556248228 -140.228971158458 
3.05             0.473602848741996 -146.660887147321 0.852782496647541 -56.5728035177326 0.852782496647541 -56.5728035177326 0.474382640769104 -146.883501380765 
3.1              0.473372399576693 -153.273695226661 0.852097058611747 -63.1217286722734 0.852097058611747 -63.1217286722734 0.474258478707051 -153.55177041059 
3.15             0.472290653882841 -159.905727095722 0.851815781756169 -69.67898418601  0.851815781756168 -69.67898418601  0.473252841077533 -160.231446234312 
3.2              0.470399782759638 -166.5578620518  0.851930270512635 -76.2486884053714 0.851930270512635 -76.2486884053714 0.471405660452927 -166.920852269888 
3.25             0.467751956856605 -173.231584090081 0.852417163244661 -82.8348244605792 0.852417163244661 -82.8348244605792 0.468772290022522 -173.618985368177 
3.3              0.464406474159455 -179.928560475333 0.853241682670454 -89.4409518342587 0.853241682670454 -89.4409518342587 0.465420023840016 179.674775386254 
3.35             0.460428824690834 173.349772512604 0.854361017350195 -96.0701158644015 0.854361017350194 -96.0701158644015 0.461426933894175 172.960941818687 
3.4              0.455890518986365 166.602608576028 0.855726440385468 -102.724863981966 0.855726440385468 -102.724863981965 0.456881615993238 166.240090128084 
3.45             0.450869464554745 159.83025335471  0.857283783893569 -109.407286316226 0.857283783893568 -109.407286316225 0.45188310943305 159.512972482479 
3.5              0.445452016210234 153.03478565517  0.858972244766145 -116.118982629068 0.858972244766145 -116.118982629068 0.446541186823901 152.780621943824 
3.55             0.439739366206051 146.220814530171 0.860722578881288 -122.860812474837 0.860722578881288 -122.860812474837 0.440978119619824 146.044401620024 
3.6              0.433861330363596 139.395702936323 0.862458776383175 -129.6322977739  0.862458776383176 -129.6322977739  0.435332928550656 139.305631714257 
3.65             0.427995202992873 132.567703345751 0.86411174743352 -136.430875601958 0.86411174743352 -136.430875601958 0.429764980233677 132.563976236615 
3.7              0.422370461686468 125.740375066169 0.865650970602189 -143.252103330178 0.865650970602191 -143.252103330178 0.424442974628115 125.81417737969  
3.75             0.417224386332762 118.905527368554 0.86711367588512 -150.09253023346 0.867113675885123 -150.09253023346 0.419500826308662 119.043937975548 
3.8              0.412709805153999 112.043955578894 0.868575266920231 -156.954447821812 0.868575266920231 -156.954447821812 0.41498029533886 112.239669022926 
3.85             0.408847951197595 105.139749140049 0.870046051224229 -163.846724045381 0.87004605122423 -163.846724045381 0.410843229733335 105.400425479594 
3.9              0.405607032299861 98.194564917056  0.871401639818667 -170.778171969881 0.871401639818667 -170.778171969881 0.407085738262295 98.544672668243  
3.95             0.403019823123004 91.2246078586996 0.872441172119244 -177.750371402353 0.872441172119244 -177.750371402353 0.403835306370723 91.6986684841707 
4                0.401209344756503 84.2465699796973 0.872997287827137 175.24238665344  0.872997287827137 175.24238665344  0.401325185992538 84.8792019404792 
4.05             0.400332847051511 77.2689644135338 0.872983464133308 168.20835343184  0.872983464133308 168.20835343184  0.399799475910156 78.0871151697182 
4.1              0.400524962687099 70.2925230525679 0.872373399543803 161.154581209987 0.872373399543803 161.154581209987 0.399444219436592 71.3116055442435 
4.15             0.40187414860825 63.3141351948296 0.87116355750446 154.085958816002 0.871163557504461 154.085958816002 0.400368723894841 64.5372491390837 
4.2              0.404422205926047 56.3300980209335 0.869348877751114 147.005848861521 0.869348877751113 147.005848861521 0.402614507297182 57.7490100530799 
4.25             0.408170985635006 49.3377904495158 0.866914284447563 139.917064653768 0.866914284447563 139.917064653768 0.406169935709803 50.9347448372958 
4.3              0.413088662921622 42.336283296239  0.863835659201942 132.822646252046 0.86383565920194 132.822646252046 0.410981748842999 44.0861613968176 
4.35             0.419114082705282 35.3264633766144 0.86008490483444 125.726345251094 0.86008490483444 125.726345251095 0.41696264394982 37.1990656549316 
4.4              0.426159906568216 28.3109901834613 0.855636259168143 118.632870306279 0.855636259168144 118.632870306279 0.423996563853216 30.2733171510499 
4.45             0.434115582046036 21.2942032411031 0.850472608029791 111.547954225377 0.850472608029793 111.547954225377 0.431943385836878 23.3126413626598 
4.5              0.442850862111563 14.2819989312121 0.844591215252211 104.478281670122 0.844591215252212 104.478281670122 0.440644142740734 16.3243265466435 
4.55             0.45222023698083 7.28166068221271 0.838008484312032 97.4312990328786 0.838008484312032 97.4312990328786 0.449927348418274 9.31879924968607 
4.6              0.462068329471333 0.301623169502578 0.830763403844564 90.4149205600931 0.830763403844564 90.4149205600931 0.459616571249992 2.3090742577512  
4.65             0.472236066446333 -6.64883897563475 0.822919358063819 83.4371444874125 0.822919358063819 83.4371444874125 0.469539094135997 -4.68991546678656 
4.7              0.482567276768073 -13.5599942770435 0.814564050968359 76.505595771582  0.81456405096836 76.505595771582  0.479535297414275 -11.6620980376671 
4.75             0.492915289615176 -20.4220949783354 0.805807386687282 69.6270147076327 0.805807386687282 69.6270147076327 0.4894682844674  -18.5911456589958 
4.8              0.503149120996277 -27.2258567625517 0.79677721381381 62.8067118158496 0.796777213813811 62.8067118158496 0.49923319905988 -25.4614758974726 
4.85             0.513158925905327 -33.9629660816644 0.787612798734607 56.0480105195719 0.787612798734607 56.0480105195719 0.508765556607607 -32.2594227567983 
4.9              0.522860501167995 -40.6266251927761 0.778455652788832 49.3517079988171 0.778455652788832 49.3517079988171 0.518047500563054 -38.9746814286107 
4.95             0.532198604199036 -47.2121855099788 0.769436853644578 42.7156208865423 0.769436853644578 42.7156208865423 0.527109754234964 -45.6021789845914 
5                0.541148380320975 -53.7179764232474 0.760659443980054 36.1343876421136 0.760659443980054 36.1343876421136 0.536024447051621 -52.1444935432049 
5.05             0.549712634826676 -60.1464720877785 0.752174784109091 29.5999411627422 0.752174784109091 29.5999411627422 0.544879326347641 -58.6146228959474 
5.1              0.55790928741528 -66.5058026542455 0.743955760437121 23.1034793400129 0.743955760437122 23.1034793400129 0.553718814745124 -65.0378312587215 
5.15             0.565739144913259 -72.8109307773858 0.735883278442064 16.6400512304318 0.735883278442065 16.6400512304318 0.562442826755135 -71.4490000163705 
5.2              0.573128160601051 -79.0821979726677 0.727787469250573 10.21570054117   0.727787469250573 10.21570054117   0.570698627742185 -77.8796255502941 
5.25             0.579871529677058 -85.3377000535673 0.719590147580611 3.85225992333789 0.719590147580611 3.85225992333788 0.577900538265646 -84.333070581957 
5.3              0.585664243926102 -91.5802115175247 0.711497794172892 -2.42089966754222 0.711497794172892 -2.42089966754221 0.58354181268757 -90.765943806694 
5.35             0.590277199783864 -97.7905514263452 0.704023424571107 -8.5908985890987 0.704023424571107 -8.59089858909868 0.587663709051278 -97.108415225302 
5.4              0.593759614862127 -103.940141712385 0.697698665649111 -14.6799269580823 0.697698665649112 -14.6799269580822 0.590960749633892 -103.3217049591  
5.45             0.596467711851109 -110.016019698315 0.692717750600834 -20.7360282857813 0.692717750600834 -20.7360282857812 0.594310509958149 -109.438554570945 
5.5              0.598883257469845 -116.040903319063 0.688823039741574 -26.804186041318 0.688823039741574 -26.804186041318 0.598164183996254 -115.551595816969 
5.55             0.601291229390298 -122.077719775281 0.685469338683671 -32.8976484447739 0.68546933868367 -32.8976484447739 0.602210734327632 -121.766615486695 
5.6              0.603420263328443 -128.207135650809 0.682223270367822 -38.9825836134825 0.682223270367822 -38.9825836134825 0.605419951263002 -128.145563473943 
5.65             0.60435730229137 -134.472916711342 0.679296514637796 -44.9960760785846 0.679296514637796 -44.9960760785846 0.60655187487969 -134.661634795436 
5.7              0.603109569501894 -140.831868424368 0.677733114131681 -50.9114108124892 0.677733114131681 -50.9114108124892 0.60504061856107 -141.206666600081 
5.75             0.599560156244181 -147.176698454595 0.678641999047148 -56.8029611213457 0.678641999047147 -56.8029611213457 0.601539729049758 -147.675273356979 
5.8              0.594732688039905 -153.442667848856 0.681869071722961 -62.8082990442611 0.68186907172296 -62.8082990442612 0.597293627541636 -154.060241935077 
5.85             0.589687212026714 -159.68046488901 0.685792906892293 -68.9826153317065 0.685792906892294 -68.9826153317064 0.592875683446511 -160.430294415938 
5.9              0.584416215486465 -165.968150952937 0.688877853974025 -75.2188390170297 0.688877853974025 -75.2188390170296 0.588133572020746 -166.803760214165 
5.95             0.578539349918959 -172.274496552887 0.691029426473667 -81.3204626862548 0.691029426473668 -81.3204626862548 0.583449129304421 -173.107078521445 
6                0.572847704070533 -178.460568381256 0.69351102139441 -87.0853959337953 0.69351102139441 -87.0853959337953 0.580493612827002 -179.251156356109 
