! Touchstone file from project sampleWidthScale-20
! Exported from HFSS-IE 2014.0.2
! Variables:
!  $perm = 6
!  impedance = 157.9ohm
!  insulationThickness = 0in
!  length = 4in
!  portSize = 1mm
!  sampleSide = 2.5in
!  sampleThickness = 0.25in
!  scale = 20
!  spacing = 0.25in
!  wireDiam = 0.125in
!  wireRadius = 0.0625in
# GHZ S MA R 157.900000
! Terminal data exported
! Port[1] = Rectangle2_T1
! Port[2] = Rectangle2_T2
0.5              0.0840903388950009 -159.447935747325 0.99578055826801 -69.2058977250556 0.995780558268011 -69.2058977250556 0.0840918817241529 -159.370241514217 
0.55             0.0907831324916848 -166.859070369013 0.994102554548689 -76.0869921883179 0.994102554548688 -76.0869921883179 0.0906427210866983 -166.870087932219 
0.6              0.0975571532274761 -173.79792320569 0.993122314166638 -82.9889348870004 0.993122314166638 -82.9889348870004 0.097298670867345 -173.829189737668 
0.65             0.104257438491438 179.395991314556 0.992373503275589 -89.9028447899551 0.992373503275588 -89.9028447899551 0.103916042528059 179.385014314623 
0.7              0.110767284760454 172.59110480965  0.991633391497838 -96.8209092856149 0.991633391497837 -96.8209092856149 0.110383617205887 172.620266770164 
0.75             0.117026152904386 165.7506447604   0.99081370802041 -103.737919908312 0.99081370802041 -103.737919908312 0.116640315850718 165.825574907289 
0.8              0.123026252799411 158.875984183607 0.989894560068978 -110.651208009679 0.989894560068978 -110.651208009679 0.122673264044198 158.992976718783 
0.85             0.128800505764294 151.98029094327  0.988886493761054 -117.560046757174 0.988886493761054 -117.560046757174 0.128507055911062 152.129750986141 
0.9              0.134409530132055 145.077186360635 0.987810160716079 -124.464986715162 0.987810160716079 -124.464986715162 0.134191448080371 145.246114058164 
0.95             0.139930424739167 138.176302332151 0.986686616712253 -131.367314529465 0.986686616712253 -131.367314529465 0.139790362851402 138.350336869992 
1                0.145447215998052 131.281847971329 0.985533556132539 -138.268713665697 0.985533556132539 -138.268713665697 0.145372468068472 131.447376735116 
1.05             0.151041520844263 124.392825458299 0.984363453989226 -145.17115749603 0.984363453989226 -145.17115749603 0.151002800259458 124.53960710062  
1.1              0.156783139577153 117.50524061839  0.983178911756326 -152.076941063061 0.983178911756327 -152.076941063061 0.156736889008766 117.629648456727 
1.15             0.162726261243395 110.616775847747 0.981962509057823 -158.988409399025 0.981962509057823 -158.988409399025 0.162624850161255 110.724626125263 
1.2              0.16892221279569 103.730277508129 0.980672303421488 -165.906770302616 0.980672303421487 -165.906770302616 0.168733932131763 103.836316165042 
1.25             0.175439448900396 96.8481912869774 0.979267887048725 -172.830843745408 0.979267887048725 -172.830843745408 0.175168469209053 96.9694280524422 
1.3              0.18234917830404 89.9627111949915 0.977750534729994 -179.758437720723 0.977750534729994 -179.758437720723 0.182035549599324 90.1085705337804 
1.35             0.189683940166674 83.0605837422053 0.976149779638325 173.310560098228 0.976149779638324 173.310560098228 0.18937969400205 83.2283470640672 
1.4              0.197437059626718 76.1369185690617 0.974469795935305 166.374095085273 0.974469795935306 166.374095085274 0.197180635881632 76.3154800100481 
1.45             0.205597489850214 69.1969215714397 0.972674285610785 159.430434880271 0.972674285610786 159.430434880271 0.205404396602537 69.3733288063562 
1.5              0.214166803744637 62.2485196145269 0.970710499084496 152.479539813553 0.970710499084497 152.479539813553 0.21403366726751 62.4122096909443 
1.55             0.22315291134517 55.2975425857911 0.968530858118748 145.522790524209 0.968530858118749 145.522790524209 0.223065372665025 55.44166578786   
1.6              0.232559716364871 48.3472473216217 0.966099821918969 138.562314440076 0.96609982191897 138.562314440076 0.232498978696422 48.4683878851674 
1.65             0.242381394780189 41.3994387662191 0.963393016453449 131.600542793105 0.963393016453449 131.600542793105 0.242328416994579 41.4968138949211 
1.7              0.252600797378689 34.455492341549  0.960394892375555 124.640015196299 0.960394892375556 124.640015196299 0.252538655955197 34.5301329573568 
1.75             0.263189842213117 27.5169091715326 0.957097056803439 117.683311005923 0.95709705680344 117.683311005923 0.263104934033996 27.5709821552182 
1.8              0.274110591374601 20.5855135373572 0.953497446263595 110.733024458641 0.953497446263596 110.733024458641 0.273993148313714 20.6218056514502 
1.85             0.285316484110048 13.6634526730361 0.94960002804531 103.791746687491 0.94960002804531 103.791746687491 0.28516067653474 13.6849940303191 
1.9              0.296753573898737 6.75310699503813 0.945414738069162 96.8620423930288 0.945414738069162 96.8620423930288 0.296557356916785 6.76290522852549 
1.95             0.308361749292045 -0.143030457134457 0.940957468938375 89.9464189713959 0.940957468938374 89.9464189713959 0.308126537867636 -0.142170659577035 
2                0.320075947815515 -7.02247676610035 0.936250005471442 83.0472892166448 0.936250005471442 83.0472892166448 0.319806172317117 -7.0280689912855 
2.05             0.331827367841498 -13.8828713221881 0.931319857373004 76.1669294838214 0.931319857373003 76.1669294838214 0.331529944582994 -13.8928134526466 
2.1              0.343544672270246 -20.722072380103 0.92619996970409 69.3074351356719 0.92619996970409 69.3074351356719 0.343228415134954 -20.7346757290012 
2.15             0.355155169517093 -27.5382363784833 0.920928310515247 62.4706747923952 0.920928310515246 62.4706747923952 0.354830163943058 -27.5522277355135 
2.2              0.366585954616224 -34.3298798413252 0.915547346720572 55.6582445069843 0.915547346720571 55.6582445069844 0.366262911542949 -34.3443841143699 
2.25             0.377764997191579 -41.0959242473856 0.910103426301658 48.8714224746459 0.910103426301657 48.871422474646  0.377454600782457 -41.1104335654202 
2.3              0.388622174260059 -47.8357247016501 0.904646087112673 42.1111241603754 0.904646087112671 42.1111241603755 0.388334432861359 -47.8500581310692 
2.35             0.399090265033757 -54.5490842651286 0.899227307211565 35.3778566697092 0.899227307211564 35.3778566697093 0.398833870137763 -54.563340489192 
2.4              0.409105951493391 -61.2362584888501 0.893900691411712 28.6716697356389 0.893900691411711 28.6716697356389 0.408887645727013 -61.2507616641206 
2.45             0.418610896703152 -67.8979608544141 0.888720539275388 21.9920991012387 0.888720539275388 21.9920991012388 0.418434852516041 -67.9131970903079 
2.5              0.427552977995204 -74.5353923510447 0.883740635861789 15.3380977713224 0.883740635861788 15.3380977713224 0.42742020168933 -74.5519306384488 
2.55             0.435887661772358 -81.1503396643455 0.87901242268672 8.70795611884383 0.87901242268672 8.70795611884385 0.435795478671849 -81.1687270166566 
2.6              0.443579154750933 -87.7454102613927 0.874581977178783 2.0992340128225  0.874581977178782 2.09923401282251 0.443520925857455 -87.7660289221206 
2.65             0.450600115497243 -94.3244602701846 0.870485246461464 -4.49121648645509 0.870485246461464 -4.49121648645509 0.450565502766639 -94.347342907393 
2.7              0.456927477394257 -100.893115797301 0.866742118629192 -11.0669748927122 0.866742118629192 -11.0669748927122 0.456903757026562 -100.917747738093 
2.75             0.462532107078775 -107.458872648777 0.863353277258538 -17.6313571809319 0.863353277258538 -17.6313571809319 0.462506953097847 -107.484078979435 
2.8              0.467365690252978 -114.029861759833 0.860307470298772 -24.1864861694039 0.860307470298772 -24.1864861694039 0.467331017205453 -114.053941724657 
2.85             0.471358764381823 -120.612110018813 0.857601728376059 -30.7330034060297 0.85760172837606 -30.7330034060297 0.471313652279034 -120.633312202957 
2.9              0.474441815759899 -127.207375723822 0.855258877541949 -37.2712299955155 0.85525887754195 -37.2712299955155 0.474391966501144 -127.224529689793 
2.95             0.476574918019709 -133.814126310677 0.85332091700841 -43.8029174742617 0.853320917008411 -43.8029174742617 0.476528427737479 -133.827020044483 
3                0.477757156350361 -140.430674545611 0.851824418133491 -50.3317582260397 0.851824418133492 -50.3317582260397 0.477719608995255 -140.439950913826 
3.05             0.478013344758595 -147.057173950868 0.850784187518311 -56.8624584282224 0.850784187518312 -56.8624584282224 0.477985293424021 -147.063919766198 
3.1              0.477378373096319 -153.695456596645 0.850194221076847 -63.3996633477487 0.850194221076847 -63.3996633477487 0.477355689305258 -153.700795644079 
3.15             0.475890764797016 -160.348003427484 0.850035975191758 -69.9474968665856 0.850035975191759 -69.9474968665856 0.475866560051939 -160.352854462579 
3.2              0.473593029406331 -167.017127393525 0.850284941651673 -76.5095869351201 0.850284941651674 -76.5095869351201 0.473559871785201 -167.022123304181 
3.25             0.470533722684273 -173.704535038718 0.850913409827417 -83.0892632827817 0.850913409827417 -83.0892632827817 0.470485544733779 -173.710042059108 
3.3              0.466768934891977 179.588956824183 0.851890113843316 -89.6897549730045 0.851890113843317 -89.6897549730045 0.466702507139014 179.582769646939 
3.35             0.462363403169607 172.86377182489  0.8531774259536  -96.3143028546539 0.8531774259536  -96.3143028546539 0.462279413907927 172.856836383655 
3.4              0.457392867340575 166.122094114675 0.854726615161863 -102.96608967898 0.854726615161863 -102.96608967898 0.457296632744487 166.11432360749  
3.45             0.451950166486474 159.368444609833 0.856472753545839 -109.647843969416 0.856472753545839 -109.647843969416 0.451851889931306 159.359583117987 
3.5              0.446157359707942 152.609779307229 0.858333745439872 -116.360991896498 0.858333745439872 -116.360991896498 0.446071695903796 152.59921353125  
3.55             0.440182244700546 145.853912699928 0.860222271109941 -123.104500326943 0.860222271109941 -123.104500326943 0.440126729395513 145.840460409096 
3.6              0.434245679180433 139.104724918034 0.86208041574954 -129.874339482213 0.86208041574954 -129.874339482213 0.434237492080536 139.086477931924 
3.65             0.428587628640658 132.354630391392 0.863930069271955 -136.665648526194 0.863930069271954 -136.665648526194 0.428638545631337 132.329043360482 
3.7              0.423365029429669 125.581650152176 0.865883578083294 -143.479223903928 0.865883578083293 -143.479223903928 0.423475815127897 125.546152519863 
3.75             0.418543216886498 118.764390625259 0.868024444436323 -150.328064245783 0.868024444436322 -150.328064245783 0.418700844413658 118.71763575994  
3.8              0.413965743051786 111.91219724579  0.870192769944973 -157.231870616068 0.870192769944972 -157.231870616068 0.414147349530045 111.855515338797 
3.85             0.409651988597912 105.071888679205 0.871958808310745 -164.196941114015 0.871958808310744 -164.196941114015 0.409835551461514 105.010002428343 
3.9              0.405973375495699 98.2857262724064 0.872940536154431 -171.205024929013 0.872940536154431 -171.205024929013 0.406148761272548 98.2260479720629 
3.95             0.403427977394951 91.5482785737943 0.873097257176726 -178.228563033278 0.873097257176726 -178.228563033278 0.403600596521023 91.4991059785362 
4                0.402307746608569 84.8144380904568 0.872653561148909 174.747975320719 0.872653561148909 174.747975320719 0.402493294190508 84.7831010720545 
4.05             0.402620118597766 78.0368004773346 0.871841135820366 167.723533387896 0.871841135820368 167.723533387896 0.402835416998714 78.0285231015833 
4.1              0.404214762727126 71.1888380839641 0.870752544663579 160.688804771012 0.870752544663576 160.688804771012 0.40447011257917 71.2063093763398 
4.15             0.406917199049173 64.2657166858052 0.869344559460148 153.634834529395 0.869344559460144 153.634834529395 0.407212450635963 64.3090038321506 
4.2              0.41059051415046 57.2757889163074 0.867499641518286 146.557010390655 0.86749964151829 146.557010390655 0.410914738292741 57.342344883031  
4.25             0.415142846319405 50.2327182380296 0.865081893780654 139.45556156456  0.865081893780651 139.45556156456  0.415476819834033 50.3174550361712 
4.3              0.420513326894299 43.1509452737881 0.861971034526908 132.334613600944 0.861971034526908 132.334613600944 0.420834037590466 43.2464635854349 
4.35             0.426655274603106 36.0438668633588 0.858078495752177 125.200991887669 0.858078495752175 125.200991887668 0.426941596469727 36.1409452076129 
4.4              0.433523333502283 28.9235416424665 0.853352873722191 118.063206840107 0.853352873722191 118.063206840107 0.433761813721774 29.0119327140492 
4.45             0.441065550301261 21.8010466726651 0.847779862438879 110.930689435717 0.847779862438874 110.930689435717 0.441255054425725 21.8705374972992 
4.5              0.449219529755529 14.6869756397924 0.841379502035623 103.813225907589 0.841379502035625 103.813225907589 0.449373529713106 14.728571867346  
4.55             0.457911509345502 7.59181900838989 0.83420212604185 96.7205238966588 0.834202126041848 96.7205238966588 0.458057207364512 7.59884553885743 
4.6              0.46705737149701 0.526118123822443 0.826323651085485 89.661858737415  0.826323651085485 89.6618587374149 0.467231597579886 0.495017956003276 
4.65             0.476564866038252 -6.49962306393621 0.817840521618252 82.6457703539846 0.817840521618252 82.6457703539846 0.476807549833705 -6.56895146139798 
4.7              0.48633652873959 -13.4752298386639 0.808864489580944 75.6797993522402 0.808864489580946 75.6797993522402 0.486683216927651 -13.5796065120872 
4.75             0.496272927389104 -20.3912840232891 0.799517359125865 68.7702629422961 0.799517359125868 68.7702629422962 0.49674804488082 -20.5248613143704 
4.8              0.506275947521735 -27.2396100168602 0.789925805457751 61.9220775569732 0.789925805457759 61.9220775569734 0.50688822345386 -27.3947645219597 
4.85             0.516251859389538 -34.0137503233492 0.780216361929746 55.1386369805551 0.780216361929747 55.1386369805552 0.516992701938942 -34.1820584544966 
4.9              0.526113903980916 -40.7093793990295 0.770510652329364 48.4217546656852 0.77051065232937 48.4217546656855 0.526958769254868 -40.8825057071558 
4.95             0.535784114376312 -47.3246267697013 0.760920925726856 41.7716790171429 0.760920925726862 41.7716790171428 0.536696312685328 -47.4950141346092 
5                0.545194057154971 -53.8602999539005 0.751545939224611 35.1871927640406 0.751545939224611 35.1871927640405 0.546130103945131 -54.0216201707313 
5.05             0.554284137038645 -60.3200087665468 0.742467254470395 28.6658134487382 0.742467254470398 28.6658134487386 0.555199689660959 -60.4673900720866 
5.1              0.563001059476045 -66.7101896385629 0.733746113524449 22.2041215598345 0.733746113524453 22.2041215598344 0.563856603674647 -66.8402743200688 
5.15             0.57129302152535 -73.0400063958939 0.725421311365913 15.7982531469453 0.725421311365916 15.7982531469451 0.572058672588074 -73.1509062794553 
5.2              0.579102308304832 -79.3210577104679 0.717508978773013 9.44459567543856 0.717508978773013 9.44459567543874 0.579761274127299 -79.4122724529703 
5.25             0.586355464309864 -85.5667516268194 0.710005989364121 3.14069726661379 0.710005989364122 3.14069726661373 0.586905819553981 -85.6390991607571 
5.3              0.592952547561427 -91.7911350142838 0.702899655966002 -3.11370263842163 0.702899655966002 -3.11370263842166 0.593406974744177 -91.8467174762563 
5.35             0.598759708669785 -98.006964880843 0.696186701379783 -9.31584821131282 0.696186701379784 -9.31584821131281 0.599142822170442 -98.0491557982547 
5.4              0.603613357208945 -104.223048650987 0.689902156607609 -15.4600605919413 0.689902156607611 -15.4600605919411 0.603956286323212 -104.25643594188 
5.45             0.607346758255017 -110.441596055472 0.684150735695214 -21.5397931119389 0.684150735695212 -21.5397931119387 0.607679102618116 -110.471755038199 
5.5              0.609843382073744 -116.657496827633 0.679118858177799 -27.5522695592286 0.679118858177798 -27.5522695592283 0.610183810776214 -116.690424969288 
5.55             0.61109668298239 -122.862029695615 0.675036653392777 -33.5041792070561 0.675036653392778 -33.5041792070562 0.611445371408769 -122.903119579851 
5.6              0.611222803351087 -129.051182818451 0.672084416854108 -39.4136486771016 0.672084416854106 -39.4136486771016 0.61156053588526 -129.103841200088 
5.65             0.610381261088221 -135.232885331868 0.670306048301255 -45.3039743086897 0.670306048301254 -45.3039743086897 0.61067874530797 -135.297322984221 
5.7              0.608650203710502 -141.424648105034 0.669626508144575 -51.1926550508248 0.669626508144575 -51.1926550508248 0.608884925598863 -141.497636667108 
5.75             0.605984774587479 -147.642077339585 0.669972706992999 -57.0870572106289 0.669972706993   -57.087057210629 0.606155241531612 -147.718082709397 
5.8              0.602304088007554 -153.890854416741 0.671364884204336 -62.9913181544393 0.671364884204336 -62.9913181544394 0.602431031423955 -153.96404704695 
5.85             0.597590580176672 -160.170931095676 0.673887603899419 -68.9153927775975 0.673887603899419 -68.9153927775975 0.597703000100334 -160.237083129483 
5.9              0.591875060953597 -166.487214484551 0.677598947413747 -74.8772109265165 0.677598947413747 -74.8772109265165 0.591986589667548 -166.544832983434 
5.95             0.585085400892115 -172.855013170153 0.682461880340222 -80.8997021520717 0.68246188034022 -80.8997021520717 0.585167101657906 -172.905620392025 
6                0.576796077582427 -179.28686851847 0.688271978263618 -87.0082361017424 0.688271978263618 -87.0082361017424 0.576748356489609 -179.334590674635 
