! Touchstone file from project sampleWidthScale-9
! Exported from HFSS-IE 2014.0.2
! Variables:
!  $perm = 6
!  impedance = 157.9ohm
!  insulationThickness = 0in
!  length = 4in
!  portSize = 1mm
!  sampleSide = 1.125in
!  sampleThickness = 0.25in
!  scale = 9
!  spacing = 0.25in
!  wireDiam = 0.125in
!  wireRadius = 0.0625in
# GHZ S MA R 157.900000
! Terminal data exported
! Port[1] = Rectangle2_T1
! Port[2] = Rectangle2_T2
0.5              0.081385209938008 -159.312659020634 0.995837391917864 -68.9969844438699 0.995837391917863 -68.9969844438699 0.081395123705173 -159.373869733345 
0.55             0.0874830976142087 -166.676967698756 0.994499737207091 -75.8502347818478 0.99449973720709 -75.8502347818478 0.087666791467543 -166.633061806763 
0.6              0.0940025529328365 -173.552785936903 0.993674079439872 -82.7334406275709 0.993674079439871 -82.733440627571 0.0942694520413466 -173.504063972815 
0.65             0.100666361732293 179.70378867382  0.992956989072574 -89.6315898551191 0.992956989072573 -89.6315898551191 0.100945141726194 179.716263746022 
0.7              0.10727735035665 172.954260862766 0.992183015920657 -96.5338466855035 0.992183015920657 -96.5338466855035 0.107521315000283 172.923385932811 
0.75             0.113719379360749 166.159354821508 0.991308238841603 -103.433881746325 0.991308238841602 -103.433881746325 0.113907532191019 166.094180806934 
0.8              0.119943193836059 159.319470950827 0.990342825747015 -110.329006409856 0.990342825747015 -110.329006409856 0.120077047844869 159.234267933032 
0.85             0.125948159067582 152.447905449038 0.989313913947429 -117.219062435477 0.989313913947428 -117.219062435477 0.126045948363432 152.355910885382 
0.9              0.131766646511462 145.56017909656  0.988246372985677 -124.105409080233 0.988246372985677 -124.105409080233 0.131856052343579 145.470249648905 
0.95             0.137453672436953 138.670359807446 0.987154035734683 -130.990074809608 0.987154035734684 -130.990074809608 0.137563421530859 138.585524207608 
1                0.143081951243916 131.78952138604  0.986037975791743 -137.87504828967 0.986037975791743 -137.87504828967 0.143232252307176 131.707140615754 
1.05             0.14873988307211 124.923512150342 0.984891468529172 -144.761743223188 0.984891468529172 -144.761743223188 0.14893213233298 124.837361640297 
1.1              0.154524837053948 118.069052019177 0.983711357293376 -151.650913825213 0.983711357293376 -151.650913825213 0.154733317179122 117.973937025248 
1.15             0.160519950234335 111.211720240122 0.982506838862702 -158.543487901641 0.982506838862702 -158.543487901641 0.160692867116913 111.110301323996 
1.2              0.166760097322806 104.334978538296 0.981282401042857 -165.441858981145 0.981282401042857 -165.441858981145 0.166839709618546 104.243181461709 
1.25             0.173237949741457 97.4392670479992 0.979995573112894 -172.34898965715 0.979995573112896 -172.34898965715 0.17319732270281 97.3834425691835 
1.3              0.179974423711263 90.5431792193894 0.97856323838298 -179.264625038494 0.978563238382981 -179.264625038494 0.17984272686296 90.5470742923019 
1.35             0.187049547516861 83.6574014377366 0.976941200721204 173.815366633435 0.976941200721206 173.815366633435 0.186898565777017 83.7290304795686 
1.4              0.194538835904866 76.7729318589807 0.975154964772134 166.894534362098 0.975154964772135 166.894534362099 0.194444396018731 76.902441183907  
1.45             0.202464490527378 69.8763722871079 0.973244740655888 159.973230944364 0.973244740655889 159.973230944364 0.202477179101145 70.043264610665  
1.5              0.210810788010388 62.9626744191006 0.971219916587127 153.05008004478  0.971219916587128 153.05008004478  0.21094827794206 63.1440962307364 
1.55             0.219553133049921 56.0348010686321 0.969059199515818 146.124003521744 0.96905919951582 146.124003521744 0.219805653555811 56.2105595329346 
1.6              0.228670303582674 49.0990212138414 0.966727962459481 139.194998044039 0.966727962459481 139.194998044039 0.229009460385091 49.2535241062757 
1.65             0.238144168535803 42.1617056164119 0.96419152661664 132.264053348167 0.964191526616641 132.264053348167 0.238530735092293 42.2842146949648 
1.7              0.247955956825756 35.2281241082937 0.961421317395615 125.33283771988  0.961421317395616 125.33283771988  0.248345790638637 35.3123148420209 
1.75             0.258083108496647 28.3022932742651 0.958396721863854 118.403421175971 0.958396721863854 118.403421175971 0.258431522575216 28.345597638898  
1.8              0.268497451870061 21.3871777315512 0.955105123243757 111.478086178595 0.955105123243758 111.478086178595 0.268762504651967 21.3900953701869 
1.85             0.279164423321   14.4849392175952 0.951541354438903 104.55920730208  0.951541354438903 104.55920730208  0.279309454402032 14.450378340315  
1.9              0.290042940299889 7.59713874427161 0.947707048021262 97.6491744778474 0.947707048021263 97.6491744778474 0.290038537759372 7.52980436779748 
1.95             0.301085646770848 0.724879630774476 0.943610023209871 90.7503421907921 0.943610023209871 90.7503421907922 0.300911138697876 0.630714016525609 
2                0.312239356521514 -6.13109600803977 0.939263733277056 83.8649946625204 0.939263733277057 83.8649946625204 0.311883869169324 -6.24541879850705 
2.05             0.323445588145729 -12.9703404999383 0.934686771611439 76.9953220283421 0.93468677161144 76.9953220283422 0.322908691013677 -13.0978649681207 
2.1              0.334641125650119 -19.7926479651341 0.929902443632838 70.14340521738   0.929902443632837 70.1434052173801 0.33393307714401 -19.9265328243711 
2.15             0.345758565593566 -26.5980016427702 0.92493843305508 63.3112083732896 0.924938433055081 63.3112083732897 0.344900172633691 -26.7318632167812 
2.2              0.356726838427864 -33.3865073743076 0.919826617989853 56.5005775437518 0.919826617989854 56.5005775437519 0.35574894255609 -33.5147158635905 
2.25             0.367471731028224 -40.1582984447863 0.914603123483929 49.713242879529  0.914603123483929 49.7132428795291 0.366414326035527 -40.2762350480978 
2.3              0.377916505905889 -46.9133953521459 0.909308729317871 42.9508180012719 0.909308729317872 42.9508180012719 0.376827470873014 -47.0176809016361 
2.35             0.387982835440083 -53.6515038450781 0.903989772557354 36.2147830428131 0.903989772557353 36.2147830428131 0.386916223321736 -53.7402113917792 
2.4              0.397592481725596 -60.3717414277779 0.898699652932544 29.5064249018118 0.898699652932545 29.5064249018118 0.396606225043032 -60.444604552591 
2.45             0.406670484969355 -67.0723102644401 0.893500861973088 22.8266872843713 0.893500861973087 22.8266872843713 0.40582325320242 -67.1309321940938 
2.5              0.415151027821127 -73.7502123679862 0.88846688804559 16.17585691373   0.888466888045591 16.17585691373   0.414497792339955 -73.7982604241334 
2.55             0.422987261754478 -80.4012786417845 0.883682025406644 9.55300304065564 0.883682025406644 9.55300304065565 0.422572941140174 -80.4445992744188 
2.6              0.430165032148449 -87.0210844865019 0.879234795427018 2.95516960693506 0.879234795427018 2.95516960693506 0.430015608195033 -87.0675750847866 
2.65             0.43671514016615 -93.607577498073 0.875198636174159 -3.62335126607729 0.875198636174159 -3.62335126607727 0.436826406318861 -93.6664967619845 
2.7              0.442707799507172 -100.16566005081 0.87159763729511 -10.1906555541578 0.871597637295109 -10.1906555541578 0.443034399962431 -100.245938280036 
2.75             0.448205595898964 -106.711162550883 0.868375992342689 -16.7543305192475 0.868375992342689 -16.7543305192474 0.448657628519154 -106.818503357525 
2.8              0.453179879848894 -113.267574992488 0.865420801079437 -23.3164139198202 0.865420801079437 -23.3164139198202 0.453637610009126 -113.401150744716 
2.85             0.457471852351086 -119.851982201679 0.862665446182898 -29.8713370200278 0.862665446182899 -29.8713370200278 0.457822004411877 -120.002922372084 
2.9              0.460886952414427 -126.462280635106 0.86018127999293 -36.4121906300438 0.86018127999293 -36.4121906300438 0.461064253754919 -126.615937467424 
2.95             0.463342317094917 -133.082859884633 0.858125034153534 -42.9397803442005 0.858125034153534 -42.9397803442005 0.46334861397174 -133.22398037208 
3                0.464891858016939 -139.701960355954 0.856598805399939 -49.4632521369354 0.85659880539994 -49.4632521369353 0.464782338515107 -139.819443780708 
3.05             0.465632644433969 -146.319664517649 0.855592468716502 -55.9931785076632 0.855592468716502 -55.9931785076632 0.465484646801558 -146.408521002058 
3.1              0.465628532729638 -152.943149640802 0.855031189024217 -62.5364116146444 0.855031189024217 -62.5364116146444 0.465513730678943 -153.003837091993 
3.15             0.464903048699322 -159.579720995017 0.854837023818276 -69.0959079141145 0.854837023818275 -69.0959079141145 0.464872138434958 -159.616315413542 
3.2              0.46346499858064 -166.233670752568 0.854954526689161 -75.6727236352856 0.85495452668916 -75.6727236352856 0.463543380364483 -166.252040051361 
3.25             0.461331067840948 -172.906287197872 0.855348105585973 -82.2676378446497 0.855348105585973 -82.2676378446497 0.461520762937987 -172.912725495342 
3.3              0.45853647541173 -179.596886095469 0.855990652816843 -88.88181049284  0.855990652816844 -88.88181049284  0.458820563292651 -179.597209375507 
3.35             0.455137584084202 173.696260850674 0.856853921519904 -95.5167769186875 0.856853921519904 -95.5167769186875 0.45548528853255 173.697307550462 
3.4              0.451211398184475 166.975313796169 0.857903426105557 -102.174139956301 0.857903426105557 -102.174139956301 0.451583274508232 166.974480651835 
3.45             0.446854535110195 160.242391970912 0.859097910086375 -108.855178743693 0.859097910086375 -108.855178743693 0.44720794704072 160.238262485018 
3.5              0.442181794816939 153.49896461739  0.860393273685536 -115.560519527366 0.860393273685535 -115.560519527366 0.442477219231203 153.492207401477 
3.55             0.437321999884802 146.74490847415  0.86175080262392 -122.290061316243 0.861750802623919 -122.290061316243 0.437530695659822 146.738330056024 
3.6              0.432406516912178 139.977448175983 0.863147136246399 -129.043466173615 0.863147136246399 -129.043466173615 0.432519442180454 139.975586564794 
3.65             0.42754728109854 133.191208760717 0.864576501761919 -135.821445909146 0.864576501761919 -135.821445909146 0.42758324841763 133.199094760436 
3.7              0.422814580780579 126.381624609938 0.866028731331132 -142.62722401853 0.866028731331132 -142.62722401853 0.422822413209086 126.402503597087 
3.75             0.418249320197483 119.551897500246 0.867441360364411 -149.465929665609 0.867441360364411 -149.465929665609 0.418296777755086 119.584484028927 
3.8              0.413934930652449 112.716256886394 0.868676208995712 -156.340169476049 0.868676208995711 -156.340169476049 0.414082494238806 112.753264717361 
3.85             0.410064256672519 105.8899764432   0.869584983877134 -163.245682809954 0.869584983877133 -163.245682809954 0.410336035690693 105.919749788736 
3.9              0.406891344513592 99.0736418016141 0.870110346347779 -170.173931934345 0.870110346347778 -170.173931934345 0.407263637464112 99.0844906982084 
3.95             0.404606341150703 92.2518136024922 0.870289992264365 -177.119304844118 0.870289992264365 -177.119304844118 0.405021029095548 92.2361753934151 
4                0.403281326083619 85.4064393327303 0.870169697672111 175.918032573628 0.870169697672111 175.918032573628 0.403670763472107 85.3624840185754 
4.05             0.402913751044322 78.5276561092115 0.869740159750934 168.93506654456  0.869740159750934 168.93506654456  0.403220681878281 78.4584578995561 
4.1              0.403485616664176 71.6147069047835 0.868938446465153 161.929614813983 0.868938446465152 161.929614813983 0.403672385288241 71.5264264839071 
4.15             0.404989595307289 64.6719904622927 0.867677761991548 154.901901194592 0.867677761991548 154.901901194592 0.405039252481967 64.5721569694934 
4.2              0.407427685688199 57.7054717240871 0.865872491299594 147.854463735046 0.865872491299594 147.854463735046 0.407341142950017 57.601730408942  
4.25             0.410800469035701 50.7209075499176 0.863450849552397 140.791516710649 0.863450849552397 140.791516710649 0.410592407768232 50.6202107555485 
4.3              0.415097203134823 43.723417300345  0.860359089271563 133.718364163112 0.860359089271563 133.718364163112 0.414791956351012 43.631542748917  
4.35             0.420289652585826 36.7176869439358 0.85656198517823 126.641006652011 0.85656198517823 126.641006652011 0.41991746075379 36.6389864065758 
4.4              0.426329465588185 29.7083515846128 0.852042269535628 119.565902233783 0.852042269535627 119.565902233783 0.425923185659422 29.6456673301383 
4.45             0.433148211454456 22.7003379900984 0.84680004563295 112.49981182541  0.84680004563295 112.49981182541  0.432740473603885 22.6550464290578 
4.5              0.440659279350713 15.6990830962231 0.840852362771084 105.44967565171  0.840852362771083 105.44967565171  0.440280086299141 15.6712347116518 
4.55             0.448761038083341 8.71060946357846 0.834232806245993 98.4224898063056 0.834232806245993 98.4224898063056 0.448435819330306 8.69913727936829 
4.6              0.457340795829825 1.7414690185801  0.826990879807917 91.4251692767761 0.826990879807918 91.4251692767761 0.457088939721149 1.7444392782468  
4.65             0.466279173849165 -5.20141914894337 0.81919099382973 84.464395388065  0.819190993829731 84.464395388065  0.466113059187733 -5.18653824668263 
4.7              0.475454551866229 -12.1110047616338 0.810910953062213 77.5464527848007 0.810910953062214 77.5464527848007 0.475379089902323 -12.0870768415609 
4.75             0.484747282933215 -18.9803826217075 0.802239930620074 70.6770649024324 0.802239930620074 70.6770649024324 0.484759964182739 -18.9503554045855 
4.8              0.494043427402304 -25.8030781551059 0.793276000252494 63.8612380756625 0.793276000252494 63.8612380756625 0.494134849859071 -25.7697653964079 
4.85             0.503237822909659 -32.5733164995734 0.784123363404985 57.1031235316067 0.784123363404986 57.1031235316067 0.503392661891078 -32.5392165016259 
4.9              0.512236385383233 -39.2862565313851 0.774889442023031 50.405904063331  0.774889442023032 50.405904063331  0.512434752199738 -39.2534109321531 
4.95             0.520957615635249 -45.9381792796018 0.765682008300521 43.771708831128  0.765682008300522 43.771708831128  0.521176742722542 -45.9080739270302 
5                0.529333355733785 -52.5266284151937 0.756606489222506 37.2015562744749 0.756606489222506 37.2015562744749 0.529549538399481 -52.5001375820921 
5.05             0.537308887299454 -59.0505084497332 0.747763521194374 30.6953224728639 0.747763521194374 30.6953224728639 0.53749960348407 -59.0278843121533 
5.1              0.544842477595457 -65.510153654396 0.739246745835709 24.2517316638267 0.73924674583571 24.2517316638267 0.544988591386597 -65.4910645993728 
5.15             0.551904442517595 -71.9073871334388 0.731140744023123 17.8683687214981 0.731140744023123 17.8683687214981 0.551992366024982 -71.891010614305 
5.2              0.558475685597961 -78.2455934847167 0.72351892643983 11.5417226532362 0.723518926439831 11.5417226532362 0.55849931539381 -78.2307708333242 
5.25             0.564545461027457 -84.5298257008195 0.716441192137631 5.26728853376693 0.716441192137631 5.26728853376693 0.564507606299933 -84.5152854658793 
5.3              0.570107790609355 -90.7669469319872 0.70995135695676 -0.960216303804109 0.70995135695676 -0.960216303804129 0.570020663838571 -90.7515958331011 
5.35             0.575155645816431 -96.9657516085311 0.704074961924671 -7.14643696962023 0.704074961924671 -7.14643696962023 0.57503981810751 -96.9490111053729 
5.4              0.579672105175036 -103.136899145689 0.698819328467518 -13.296690356581 0.698819328467518 -13.296690356581 0.5795532478075  -103.119022434287 
5.45             0.583619150385755 -109.292350378472 0.694179393820162 -19.4150562069403 0.694179393820162 -19.4150562069403 0.583522161805204 -109.274588023037 
5.5              0.58692857346836 -115.443982230334 0.69015312210595 -25.5036628704828 0.69015312210595 -25.5036628704828 0.586869746396325 -115.428402796921 
5.55             0.589504258006294 -121.601506002481 0.68676516279907 -31.5630449129059 0.68676516279907 -31.5630449129058 0.58948416829315 -121.590305630148 
5.6              0.591243632495948 -127.770850369594 0.684085060343889 -37.5943520905667 0.684085060343888 -37.5943520905667 0.591245465096821 -127.765218452073 
5.65             0.592070112692923 -133.954795843029 0.682217796592808 -43.6026888988547 0.682217796592808 -43.6026888988547 0.592067504766146 -133.953834529684 
5.7              0.591948967899195 -140.156093518674 0.681261385527339 -49.5988597232222 0.68126138552734 -49.5988597232222 0.591921954359641 -140.156594565802 
5.75             0.590868871866288 -146.380330128399 0.681262544700003 -55.5973894162626 0.681262544700003 -55.5973894162626 0.590818957665783 -146.377937453715 
5.8              0.588810882195952 -152.635649098796 0.682208403118718 -61.6122992382737 0.682208403118718 -61.6122992382737 0.588763892900462 -152.627113093836 
5.85             0.585742916478732 -158.930109833614 0.684054542035243 -67.6539583715522 0.684054542035243 -67.6539583715522 0.585734088634408 -158.9156621034  
5.9              0.581649678270307 -165.270093896676 0.686762449504809 -73.7280899962015 0.686762449504809 -73.7280899962015 0.581693759188508 -165.254962207396 
5.95             0.576578392423149 -171.662276522027 0.6903350924491  -79.835630647631 0.6903350924491  -79.835630647631 0.576631890358289 -171.65676645727 
6                0.570675802215498 -178.120137344133 0.694866632902684 -85.9726343044297 0.694866632902684 -85.9726343044297 0.570599053350028 -178.138028960996 
