! Touchstone file from project sampleWidthScale-6
! Exported from HFSS-IE 2014.0.2
! Variables:
!  $perm = 6
!  impedance = 157.9ohm
!  insulationThickness = 0in
!  length = 4in
!  portSize = 1mm
!  sampleSide = 0.75in
!  sampleThickness = 0.25in
!  scale = 6
!  spacing = 0.25in
!  wireDiam = 0.125in
!  wireRadius = 0.0625in
# GHZ S MA R 157.900000
! Terminal data exported
! Port[1] = Rectangle2_T1
! Port[2] = Rectangle2_T2
0.5              0.078642712312537 -159.324191798087 0.996063684762488 -68.839563958741 0.996063684762488 -68.839563958741 0.0786532234322729 -159.064449846818 
0.55             0.0850126024971892 -166.603402159286 0.994803913210372 -75.6964910916998 0.994803913210372 -75.6964910916999 0.084925573614224 -166.277661420139 
0.6              0.0914590648013345 -173.494951638088 0.993974291324961 -82.5694731690908 0.993974291324961 -82.5694731690908 0.0913484569058569 -173.126477937977 
0.65             0.0978325838332084 179.725176081502 0.993253074360711 -89.4496294165188 0.993253074360711 -89.4496294165188 0.0977445971738157 -179.888845658205 
0.7              0.104033906820957 172.951718586781 0.992506375696777 -96.3306335749382 0.992506375696776 -96.3306335749382 0.103990782877722 173.333042796443 
0.75             0.110017197060258 166.154108161877 0.991694932887743 -103.20917446766 0.991694932887743 -103.20917446766 0.110022442668277 166.514070430714 
0.8              0.115779926611454 159.331031174275 0.990820283244022 -110.084371230532 0.990820283244022 -110.084371230532 0.115823671192859 159.658996335066 
0.85             0.121350080319685 152.490729797893 0.989895277388741 -116.956935821498 0.989895277388741 -116.956935821498 0.121414064415289 152.781917277772 
0.9              0.126776039487649 145.643305485295 0.988929146156932 -123.828359882224 0.988929146156933 -123.828359882224 0.126838226308416 145.898227481716 
0.95             0.132120966915368 138.797843744069 0.987921822850349 -130.700180702219 0.98792182285035 -130.700180702219 0.132160020622228 139.021559409976 
1                0.13746118788313 131.960413479835 0.986866023795511 -137.573339838506 0.986866023795512 -137.573339838506 0.137461134736408 132.161515195836 
1.05             0.142884562601112 125.130613264516 0.985758227159789 -144.447803139491 0.985758227159789 -144.447803139491 0.142839705936924 125.319643100355 
1.1              0.148478414888619 118.296861560012 0.984617077074161 -151.323000006356 0.984617077074161 -151.323000006356 0.148397576203468 118.483732468284 
1.15             0.154294886146356 111.437165340115 0.983490985983464 -158.19978725862 0.983490985983464 -158.19978725862 0.154201945910016 111.627549370871 
1.2              0.160313499597947 104.537597106096 0.982415022696124 -165.082799180211 0.982415022696124 -165.082799180211 0.160239636865667 104.729717913612 
1.25             0.166481157526913 97.6198482240438 0.981325462049294 -171.978349167429 0.981325462049295 -171.978349167429 0.166448410887284 97.8047910085938 
1.3              0.172840439616832 90.7299305103307 0.98006925568375 -178.886878105757 0.980069255683749 -178.886878105757 0.172847447623981 90.8970166006625 
1.35             0.179554262562639 83.8844109928493 0.978555793736755 174.198913865943 0.978555793736754 174.198913865943 0.179578003514326 84.0278763141031 
1.4              0.186761975439241 77.0549721513637 0.97682761484796 167.286040166588 0.97682761484796 167.286040166588 0.186773288793474 77.1763821530698 
1.45             0.194487907252958 70.2061912845514 0.974968145821068 160.375859079283 0.974968145821068 160.375859079283 0.194465880346337 70.3120532916179 
1.5              0.202682686935751 63.3231045744269 0.973015602820326 153.466180006888 0.973015602820326 153.466180006888 0.202619899807795 63.4212146976256 
1.55             0.211287326471934 56.4093526384504 0.970956951015492 146.554760237819 0.970956951015493 146.554760237819 0.211188332910964 56.5063633393906 
1.6              0.220259373001292 49.4762501834037 0.968754649684551 139.640747608515 0.968754649684551 139.640747608515 0.220136911940204 49.5767045194097 
1.65             0.229572239429718 42.5355464184652 0.966367858138781 132.724638385821 0.966367858138781 132.724638385821 0.229443577088474 42.6417937918209 
1.7              0.239207251485635 35.5967124842974 0.963762020504207 125.807824669605 0.963762020504207 125.807824669605 0.239091302823227 35.7092065875693 
1.75             0.249146791087907 28.6665605386091 0.96091148670444 118.892199572031 0.96091148670444 118.892199572031 0.249061981260426 28.7842765508619 
1.8              0.259370014140208 21.7496539248396 0.95779932732995 111.979904859232 0.95779932732995 111.979904859232 0.259332704225028 21.8705129146958 
1.85             0.269850550243469 14.8488456935673 0.95441639494871 105.073188426412 0.95441639494871 105.073188426412 0.269873884022482 14.9701042535237 
1.9              0.280555416704585 7.96574001348066 0.950760392674986 98.174328145752  0.950760392674986 98.174328145752  0.280648499469487 8.08433117754825 
1.95             0.291444622690929 1.10104488881953 0.946835151606445 91.2855919814465 0.946835151606445 91.2855919814465 0.291611981762846 1.21386687541879 
2                0.302471165032907 -5.74516515655958 0.942650126356102 84.4092169916739 0.942650126356103 84.4092169916739 0.302712462982114 -5.64101170023629 
2.05             0.313581258086291 -12.573250395598 0.938220073090653 77.54739789347   0.938220073090653 77.54739789347   0.313891239059743 -12.4802738597868 
2.1              0.324714717248056 -19.3838489892858 0.933564880935727 70.702280213212  0.933564880935727 70.7022802132121 0.325083369902764 -19.3040226632749 
2.15             0.335805457796784 -26.1777441637834 0.928709549726894 63.875955006958  0.928709549726894 63.875955006958  0.336218379324579 -26.1124008784292 
2.2              0.346782099592349 -32.9557403893856 0.923684333927206 57.0704524502154 0.923684333927206 57.0704524502154 0.347221047433226 -32.9054992495065 
2.25             0.357568701185665 -39.7185340727758 0.91852510097077 50.2877303481255 0.91852510097077 50.2877303481256 0.358012325077052 -39.6832518355604 
2.3              0.368085701937972 -46.4665638585667 0.913273977862108 43.5296502361154 0.913273977862109 43.5296502361154 0.36851046191808 -46.4453032698802 
2.35             0.378251250802489 -53.1998265770333 0.907980367247775 36.7979269591491 0.907980367247776 36.7979269591492 0.378632550267137 -53.190834638937 
2.4              0.387983273517953 -59.9176528426407 0.902702359212346 30.0940256318347 0.902702359212346 30.0940256318347 0.388296874486853 -59.9183444674083 
2.45             0.397202892796486 -66.6184640315187 0.897508342347982 23.4189616144861 0.897508342347983 23.4189616144861 0.397426735561186 -66.6254128474846 
2.5              0.405840101416015 -73.2996052155038 0.892478013143225 16.7729393950751 0.892478013143226 16.7729393950751 0.405956715236837 -73.3085574067099 
2.55             0.413842536618223 -79.9575032603955 0.887700680312478 10.1547703045315 0.887700680312478 10.1547703045315 0.413842261521156 -79.9634588059858 
2.6              0.421186745760551 -86.5886410801225 0.883266683176887 3.56111151946618 0.883266683176887 3.56111151946617 0.421071862521454 -86.5860961134408 
2.65             0.427886463992381 -93.1919710871447 0.879246443812139 -3.01409100728979 0.879246443812139 -3.01409100728976 0.427675770100858 -93.1754767700567 
2.7              0.43398351707219 -99.7726840594521 0.875657095112784 -9.57895023651301 0.875657095112784 -9.578950236513  0.433715515215539 -99.7378866684086 
2.75             0.439503984563613 -106.344657367373 0.872437784087108 -16.1405428293267 0.872437784087108 -16.1405428293267 0.439234851880009 -106.289777301547 
2.8              0.444392746567792 -112.925955493803 0.869480896468644 -22.7001904137181 0.869480896468644 -22.700190413718 0.444184881451763 -112.85310537569 
2.85             0.448502347794574 -119.526157593161 0.866735103316354 -29.2522915971292 0.866735103316354 -29.2522915971292 0.448404564201395 -119.441374163976 
2.9              0.451694763563751 -126.138187900364 0.864281254930947 -35.7909937077473 0.864281254930947 -35.7909937077473 0.451724749634096 -126.049555945736 
2.95             0.453956042315278 -132.747621573615 0.862266378323922 -42.3182712214014 0.862266378323922 -42.3182712214014 0.454097582613139 -132.662448022268 
3                0.455379683062392 -139.348591871212 0.860772275464121 -48.8433460171108 0.860772275464122 -48.8433460171108 0.455595362320805 -139.271414238195 
3.05             0.456062896471888 -145.947461822852 0.859775866710056 -55.3758413806179 0.859775866710056 -55.3758413806179 0.456311509738798 -145.879731721262 
3.1              0.456047580525488 -152.555332156543 0.859202712123034 -61.9215312607556 0.859202712123034 -61.9215312607555 0.456296382550213 -152.496285155786 
3.15             0.455332265412   -159.180902784566 0.858982773319613 -68.4827595283084 0.858982773319614 -68.4827595283084 0.455561618918995 -159.128734548216 
3.2              0.453906808697639 -165.828278086555 0.859068732937349 -75.0604601269827 0.859068732937349 -75.0604601269827 0.454109540011585 -165.781092557845 
3.25             0.451776476027571 -172.497850491776 0.859429843367517 -81.655543264033 0.859429843367516 -81.655543264033 0.451954840248718 -172.454253137981 
3.3              0.448971321844886 -179.187830811663 0.8600404662158  -88.269323969866 0.8600404662158  -88.269323969866 0.449133370051423 -179.147233837846 
3.35             0.445547344287548 174.104583938624 0.860872050429719 -94.9033865265741 0.860872050429719 -94.903386526574 0.445703423393455 174.141848326754 
3.4              0.441584927898505 167.382452432953 0.861890143007835 -101.559248934166 0.861890143007835 -101.559248934166 0.441744468246094 167.415150255564 
3.45             0.437186821970651 160.648462281883 0.863055855925235 -108.238036614135 0.863055855925235 -108.238036614135 0.437355383532964 160.674594382464 
3.5              0.432475136178081 153.904140226471 0.864331097818772 -114.94031145678 0.864331097818772 -114.94031145678 0.432651765607237 153.921226770993 
3.55             0.427584483084387 147.148785991376 0.865686334960612 -121.666242459508 0.865686334960612 -121.666242459508 0.427759756631534 147.154357639938 
3.6              0.422646924761526 140.378555039159 0.867106602330887 -128.416351788114 0.867106602330888 -128.416351788114 0.422802642037954 140.370899402295 
3.65             0.417767686049565 133.587169220105 0.868585146352581 -135.192831656581 0.868585146352581 -135.192831656581 0.417879883209153 133.566271586556 
3.7              0.413006081680241 126.770421642717 0.870091358486708 -142.00043138419 0.870091358486709 -142.00043138419 0.413053049177143 126.738765024906 
3.75             0.408398649455643 119.933741281695 0.87152240561689 -148.844563550127 0.871522405616891 -148.844563550127 0.408373310446625 119.896280518289 
3.8              0.404042249883892 113.094120192382 0.872701256211554 -155.725766708041 0.872701256211557 -155.725766708041 0.403962939251127 113.056783034458 
3.85             0.400155948427827 106.267045122303 0.873476793466693 -162.63608338366 0.873476793466693 -162.63608338366 0.400066040585987 106.234093967973 
3.9              0.397008062061513 99.4494198670927 0.873835397634859 -169.56435094223 0.87383539763486 -169.56435094223 0.396961138823999 99.4213538899809 
3.95             0.394773741351081 92.6213346129896 0.873872221313247 -176.505393534746 0.873872221313247 -176.505393534746 0.394813724828369 92.5948797427767 
4                0.393493929353981 85.7635679369909 0.873664010518001 176.53796009357  0.873664010518001 176.53796009357  0.393642827705629 85.7334790960391 
4.05             0.393144142424763 78.8687927611709 0.873197613871701 169.559986355548 0.873197613871702 169.559986355548 0.39340092674835 78.8299923367167 
4.1              0.393704417353597 71.9400113324583 0.872388172403044 162.55698010882  0.872388172403045 162.55698010882  0.394050532793727 71.8890452613989 
4.15             0.395180297178877 64.984385111319  0.871126018642985 155.528792740513 0.871126018642985 155.528792740513 0.395586699891764 64.9200624488933 
4.2              0.397591958229461 58.0088807061079 0.8693092223536  148.478222927543 0.8693092223536  148.478222927543 0.398025192050445 57.9323529836104 
4.25             0.400956603336469 51.0187228173588 0.866856645150259 141.409943709266 0.866856645150259 141.409943709266 0.401383413578029 50.9332538498252 
4.3              0.405275338089477 44.017518842557  0.86370996594943 134.329693723727 0.86370996594943 134.329693723727 0.405666064642181 43.9280937928856 
4.35             0.410526167889549 37.0079928956767 0.859831902049874 127.243816906339 0.859831902049874 127.243816906339 0.410857246218863 36.9208434060468 
4.4              0.41666168384676 29.9927689477692 0.855204084077904 120.159034473713 0.855204084077904 120.159034473713 0.416917474249816 29.9148588709328 
4.45             0.423609834526492 22.9749833565462 0.849825629934998 113.082329465186 0.849825629934999 113.082329465186 0.4237838875291  22.913488716247  
4.5              0.431276667620254 15.9586683711892 0.843712408007951 106.020865871811 0.84371240800795 106.020865871811 0.431372462884257 15.9204809560171 
4.55             0.439550333737487 8.9489135867261  0.836896649098447 98.9819012976716 0.836896649098447 98.9819012976715 0.439581498014862 8.94019304506263 
4.6              0.448305868632601 1.95183782928515 0.829426538945404 91.9726763124658 0.829426538945404 91.9726763124658 0.448295871428896 1.97763049684863 
4.65             0.45741036945008 -5.02558580489964 0.821365504774368 85.0002781142622 0.821365504774367 85.0002781142622 0.457391700851131 -4.96165107987883 
4.7              0.466728223999962 -11.9758056950193 0.812791023731783 78.0714843536433 0.812791023731782 78.0714843536433 0.466741068907242 -11.8717421940278 
4.75             0.476126085598576 -18.8910233792733 0.803792898296096 71.1925971530053 0.803792898296096 71.1925971530053 0.476216516953329 -18.746635186835 
4.8              0.485477333013431 -25.7635412226813 0.794471048253942 64.3692786092414 0.794471048253942 64.3692786092414 0.485695050413018 -25.5805031244266 
4.85             0.494665822506658 -32.5860938403877 0.784932949225959 57.606398021236  0.784932949225958 57.606398021236  0.495061460708975 -32.3679705222455 
4.9              0.503588823043036 -39.352140626571 0.775290895344971 50.9078982470208 0.775290895344971 50.9078982470208 0.50421084765161 -39.1043514652412 
4.95             0.512159116243993 -46.056107273456 0.765659273357334 44.2766845424641 0.765659273357334 44.2766845424641 0.513050313734043 -45.7858387288357 
5                0.520306326319758 -52.6935750756112 0.756152005731045 37.7145346612764 0.756152005731045 37.7145346612763 0.521499887706863 -52.4096359741977 
5.05             0.527977606771964 -59.2614279876443 0.746880252561193 31.2220247880357 0.746880252561193 31.2220247880357 0.529492808602366 -58.9740336258319 
5.1              0.535137831189838 -65.7579791388308 0.737950358542665 24.7984632793709 0.737950358542665 24.798463279371  0.536975352474107 -65.4784377452098 
5.15             0.541769385818578 -72.1831111381519 0.729461895391712 18.4418252757756 0.729461895391711 18.4418252757756 0.543906397815835 -71.9233706344522 
5.2              0.54787149268764 -78.5384769430131 0.721505494404753 12.1486896062923 0.721505494404753 12.1486896062922 0.550256875849574 -78.3104723483038 
5.25             0.553458626413048 -84.8278145281879 0.71416003359977 5.91420086254455 0.71416003359977 5.91420086254456 0.556009091072958 -84.6425421598489 
5.3              0.558556942437523 -91.0574115258137 0.707488773760316 -0.267879157431531 0.707488773760316 -0.267879157431505 0.561155561418485 -90.9236605296014 
5.35             0.563196749589199 -97.236676502152 0.701534535435643 -6.40490579401887 0.701534535435643 -6.40490579401887 0.565696498193399 -97.1594046795309 
5.4              0.567398472721563 -103.378572107864 0.696315468209269 -12.5046999163195 0.696315468209269 -12.5046999163195 0.569634566790323 -103.357078764973 
5.45             0.571150932722584 -109.499319604325 0.691825624935359 -18.5744149856938 0.691825624935359 -18.5744149856938 0.572966038695359 -109.525702479422 
5.5              0.57438693568309 -115.616496728563 0.68804686997083 -24.6192154705133 0.68804686997083 -24.6192154705133 0.575670449617757 -115.675346432304 
5.55             0.576972589625494 -121.745081812243 0.684975273651863 -30.6417877066631 0.684975273651862 -30.6417877066631 0.577706538153871 -121.815644869916 
5.6              0.578733098807   -127.89287197968 0.682650153385128 -36.644053522399 0.682650153385127 -36.644053522399 0.579024066666837 -127.954333338888 
5.65             0.579517802081101 -134.059013915978 0.681156371686081 -42.6309874455909 0.681156371686081 -42.6309874455908 0.579587357160747 -134.097666457684 
5.7              0.579262501333972 -140.238461495146 0.680582047099946 -48.6134421058003 0.680582047099947 -48.6134421058003 0.579383303948584 -140.253284198369 
5.75             0.577993341401593 -146.429673048568 0.680962484097683 -54.6064808130148 0.680962484097683 -54.6064808130148 0.578393004631253 -146.432542681981 
5.8              0.575772531133886 -152.63918769175 0.682265529436859 -60.6241956171382 0.682265529436859 -60.6241956171382 0.576553238637731 -152.648707475853 
5.85             0.572644680386394 -158.880621099027 0.684430091835241 -66.675615951911 0.684430091835241 -66.6756159519111 0.573757571965681 -158.912175601014 
5.9              0.568627352239072 -165.171736794228 0.687421568243733 -72.7640650011684 0.687421568243733 -72.7640650011684 0.569907957123147 -165.227730208995 
5.95             0.563736897242532 -171.534280774738 0.691278101479953 -78.8885087641954 0.691278101479953 -78.8885087641955 0.564982615288522 -171.597245542142 
6                0.558016062922612 -177.998708619176 0.696158622864385 -85.0452588275327 0.696158622864384 -85.0452588275327 0.55908137461754 -178.028168657225 
