! Touchstone file from project sampleWidthScale-12
! Exported from HFSS-IE 2014.0.2
! Variables:
!  $perm = 6
!  impedance = 157.9ohm
!  insulationThickness = 0in
!  length = 4in
!  portSize = 1mm
!  sampleSide = 1.5in
!  sampleThickness = 0.25in
!  scale = 12
!  spacing = 0.25in
!  wireDiam = 0.125in
!  wireRadius = 0.0625in
# GHZ S MA R 157.900000
! Terminal data exported
! Port[1] = Rectangle2_T1
! Port[2] = Rectangle2_T2
0.5              0.0827574985377857 -159.504489904377 0.99568512634356 -69.0809129793438 0.99568512634356 -69.0809129793438 0.0827754022698014 -159.386206171492 
0.55             0.088949938304953 -167.131659314626 0.993624008128326 -75.9289072261887 0.993624008128325 -75.9289072261887 0.0888505631629415 -166.957990812293 
0.6              0.095538013383601 -174.053160000192 0.99256813269527 -82.8104849994233 0.99256813269527 -82.8104849994233 0.0953985186652575 -173.856364234936 
0.65             0.102288934708416 179.248285706072 0.991897801933624 -89.7129257999338 0.991897801933625 -89.7129257999338 0.102157411490197 179.446977165617 
0.7              0.109014801943347 172.567259444122 0.991301786435918 -96.6250077460791 0.991301786435918 -96.6250077460791 0.108916914109688 172.755256271575 
0.75             0.115591125657825 165.833967107735 0.99064280428436 -103.538879798996 0.99064280428436 -103.538879798996 0.115536881249697 166.00544028976  
0.8              0.121956058690054 159.03842669203  0.989875046346668 -110.450032389838 0.989875046346667 -110.450032389838 0.121945355310636 159.192369883112 
0.85             0.128098928477201 152.193382062386 0.988995340527859 -117.356587726549 0.988995340527859 -117.356587726549 0.12812571200439 152.331886311045 
0.9              0.13404683380386 145.317658075036 0.988015477302866 -124.258438297651 0.988015477302866 -124.258438297651 0.134102111027864 145.444551277378 
0.95             0.139853851470353 138.429254349875 0.986947914360094 -131.156425866801 0.986947914360093 -131.156425866801 0.139927858861273 138.549097094552 
1                0.145594099976965 131.542275566165 0.985800876648291 -138.051621069426 0.98580087664829 -138.051621069426 0.145677877985728 131.659634426298 
1.05             0.151356837990611 124.664432841938 0.984581713698045 -144.944798978456 0.984581713698045 -144.944798978456 0.151443363769099 124.783334460051 
1.1              0.157237309828348 117.794040244736 0.983307150147076 -151.8364182919  0.983307150147075 -151.8364182919  0.157322188944293 117.917520698082 
1.15             0.163314586264028 110.919432071927 0.982010523096626 -158.72755161471 0.982010523096626 -158.72755161471 0.163396097347043 111.04915644678  
1.2              0.169623501656171 104.027711318388 0.980723001281001 -165.621301563172 0.980723001281001 -165.621301563172 0.169701729273963 104.163775277354 
1.25             0.176162860980692 97.1206287549032 0.979427751357873 -172.522187866304 0.979427751357873 -172.522187866304 0.176238153820709 97.261755950104  
1.3              0.182955085464721 90.2149162756822 0.978052684188796 -179.432556453567 0.978052684188797 -179.432556453567 0.183026917595412 90.3590696403786 
1.35             0.190072055450425 83.3212299856399 0.976533115333279 173.649023550162 0.976533115333279 173.649023550162 0.190139195781539 83.4662600920369 
1.4              0.19758611309246 76.4341911303525 0.974851263470439 166.724947987629 0.974851263470438 166.724947987629 0.197647638696762 76.578137557701  
1.45             0.205530061126839 69.5431658455621 0.973010011688323 159.796245830965 0.973010011688322 159.796245830965 0.205586112528292 69.6842389752429 
1.5              0.213904429832403 62.6421522142765 0.971002172167079 152.862980600715 0.971002172167079 152.862980600715 0.21395627856243 62.7786458031117 
1.55             0.222696861142262 55.7306000102762 0.968806179998421 145.925352266699 0.968806179998421 145.925352266699 0.222746534645267 55.8608776726781 
1.6              0.231891254197012 48.8107794432915 0.966394198009672 138.984199959229 0.966394198009672 138.984199959229 0.231941053113664 48.933335165553  
1.65             0.241468541833521 41.8857865466838 0.96373946585891 132.041008711505 0.963739465858911 132.041008711505 0.241520626415393 41.9993334608873 
1.7              0.251404934931459 34.9587193150251 0.960820195523445 125.097755442685 0.960820195523444 125.097755442685 0.25146103143389 35.0622706591707 
1.75             0.261670402478232 28.0324998280172 0.957621180771598 118.156753539154 0.957621180771598 118.156753539154 0.261731626813654 28.1254244869248 
1.8              0.272227996989789 21.1099177993959 0.954134358743595 111.220531379495 0.954134358743595 111.220531379495 0.272294778231215 21.1919654550572 
1.85             0.283033908890534 14.1937017940403 0.950358961695219 104.291738832303 0.950358961695219 104.291738832303 0.283105993858146 14.2649993754072 
1.9              0.294038022062667 7.28655650123611 0.946301496154825 97.3730701125771 0.946301496154825 97.3730701125771 0.294114543705184 7.34758063911183 
1.95             0.305184788711406 0.391158344678222 0.941975607224089 90.4671948707995 0.941975607224089 90.4671948707995 0.305264382338572 0.442689589991915 
2                0.3164142972682  -6.48988141862271 0.937401824872659 83.5766933407292 0.937401824872659 83.5766933407292 0.316495249516259 -6.44681684420171 
2.05             0.327663444296684 -13.3540740701604 0.932607178480685 76.7039940296707 0.932607178480685 76.7039940296707 0.327743860233868 -13.3182697664159 
2.1              0.338867143722354 -20.1991206694971 0.927624673021563 69.8513139033281 0.927624673021563 69.8513139033281 0.338945117934285 -20.169258389223 
2.15             0.349959521706278 -27.0229809146722 0.922492631416761 63.0206016644874 0.922492631416761 63.0206016644873 0.350033299596942 -26.9976982534867 
2.2              0.360875058485892 -33.8239377119798 0.917253916897204 56.2134848354124 0.917253916897204 56.2134848354124 0.360943174281131 -33.8018925748597 
2.25             0.371549652203155 -40.6006538066109 0.911955053598527 49.4312211187187 0.911955053598527 49.4312211187187 0.371611030001576 -40.5805838486663 
2.3              0.381921594411483 -47.3522192953831 0.906645260526095 42.6746540962916 0.906645260526094 42.6746540962916 0.381975597736899 -47.3329950973762 
2.35             0.3919324601093  -54.078191936143 0.901375400587052 35.944172970963  0.901375400587052 35.9441729709629 0.391978873415831 -54.0588628957093 
2.4              0.401527919301254 -60.7786363826505 0.896196819282047 29.2396762695064 0.896196819282047 29.2396762695064 0.401566841685204 -60.7584679745256 
2.45             0.410658456043048 -67.4541738244921 0.891160007131897 22.5605412512918 0.891160007131897 22.5605412512918 0.410690084036046 -67.4326736609689 
2.5              0.419279903852572 -74.1060582648078 0.886312980130845 15.9056061691336 0.886312980130845 15.9056061691336 0.419304180727367 -74.0829857579432 
2.55             0.427353533348731 -80.7362925305538 0.881699292010956 9.27318400205279 0.881699292010956 9.27318400205278 0.427369658327588 -80.7116424445686 
2.6              0.434845165343047 -87.3477675998959 0.877355820814994 2.66114314856414 0.877355820814994 2.66114314856413 0.434851012646123 -87.3217119509602 
2.65             0.441722674146137 -93.9443254974109 0.873311137647575 -3.93290361700435 0.873311137647575 -3.93290361700438 0.441714308466232 -93.9170955747202 
2.7              0.447952065672646 -100.530522079952 0.869586273176668 -10.5113169960121 0.869586273176669 -10.5113169960121 0.447923774146628 -100.50222596401 
2.75             0.453494909467543 -107.110891999662 0.866199499405656 -17.0762432197998 0.866199499405656 -17.0762432197998 0.453440363712892 -107.081313493422 
2.8              0.458312138365867 -113.689052036792 0.863172354524002 -23.629847275028 0.863172354524002 -23.629847275028 0.458227004416362 -113.657561705989 
2.85             0.462373860675035 -120.267709087668 0.860528057529842 -30.174913952379 0.860528057529841 -30.174913952379 0.462258958569791 -120.233448738909 
2.9              0.465663157872061 -126.849882680592 0.858279829869468 -36.7149728703878 0.858279829869468 -36.7149728703878 0.465525943394644 -126.812225397956 
2.95             0.468166772224192 -133.439556565737 0.856424549005873 -43.2534810319588 0.856424549005873 -43.2534810319588 0.468019561025823 -133.398574343231 
3                0.469867319576288 -140.0405423382  0.854952474769836 -49.7931249972786 0.854952474769837 -49.7931249972786 0.469723320155649 -139.997175526757 
3.05             0.470749497796011 -146.655170041536 0.853859070271219 -56.3361440450433 0.853859070271219 -56.3361440450433 0.470619187534427 -146.611062340423 
3.1              0.470811215796213 -153.284321499831 0.853145127770374 -62.8850424218433 0.853145127770374 -62.8850424218433 0.470700476837513 -153.241508132505 
3.15             0.47006834296178 -159.92825466404 0.852809467465768 -69.4428762461263 0.852809467465768 -69.4428762461263 0.469978128133522 -159.888874957917 
3.2              0.468553102127038 -166.587227837161 0.852842920745509 -76.0130954758565 0.852842920745509 -76.0130954758565 0.468479832918346 -166.553316486546 
3.25             0.466310685527578 -173.261659572276 0.853226153903703 -82.5992593209567 0.853226153903703 -82.5992593209567 0.466246818762032 -173.234995910824 
3.3              0.463396718380933 -179.951997881354 0.853929825217165 -89.2048138362685 0.853929825217165 -89.2048138362685 0.463331282680739 -179.933974124083 
3.35             0.45987599765491 173.341520487232 0.854915258947817 -95.832955523628 0.854915258947817 -95.832955523628 0.459795141731858 173.350044765179 
3.4              0.455822268344847 166.619144296094 0.856134683775798 -102.486533218108 0.856134683775797 -102.486533218108 0.455710006469765 166.618023090279 
3.45             0.451319042948691 159.881894338515 0.85753086976867 -109.16792108348 0.857530869768669 -109.16792108348 0.451158505136678 159.871919569536 
3.5              0.44646193739204 153.131810245525 0.859036771197574 -115.878789679293 0.859036771197573 -115.878789679293 0.446237568274071 153.114962017676 
3.55             0.441363111930932 146.371967467229 0.860576996398971 -122.619719072326 0.86057699639897 -122.619719072326 0.441064351456054 146.351617116658 
3.6              0.436157104051991 139.605836448219 0.862074638230079 -129.389708651777 0.86207463823008 -129.389708651776 0.43578385876725 139.586724983471 
3.65             0.431003065951401 132.835457505885 0.863467273374   -136.185951730912 0.863467273373999 -136.185951730912 0.430572170433041 132.823141613845 
3.7              0.426072488074639 126.05869923685  0.864729065178253 -143.004662267835 0.864729065178253 -143.004662267835 0.425621877060018 126.058162051951 
3.75             0.421515664966363 119.268084668681 0.865878721134449 -149.843439613412 0.86587872113445 -149.843439613412 0.421100453302842 119.281674269013 
3.8              0.417428483064481 112.454611424848 0.866947196775255 -156.703646598712 0.866947196775256 -156.703646598712 0.417105316926397 112.480417887892 
3.85             0.413862619958773 105.614680245093 0.867921119577526 -163.589686659277 0.867921119577526 -163.589686659277 0.413668382342799 105.646842695339 
3.9              0.410875668418736 98.752124811403  0.868724398184017 -170.505240146885 0.868724398184017 -170.505240146885 0.410814560546708 98.7832255516684 
3.95             0.40855960418004 91.8732147094678 0.869255444936204 -177.450741167128 0.869255444936205 -177.450741167128 0.40860626950141 91.8971061318582 
4                0.407023122888922 84.9817277783456 0.869426978498399 175.57592386122  0.869426978498399 175.57592386122  0.407135991142807 84.9951254421572 
4.05             0.406362920081397 78.0784204424165 0.869174390137637 168.577705480345 0.869174390137638 168.577705480345 0.406497574340366 78.0809961091358 
4.1              0.406650597880668 71.1627860651928 0.868446369873155 161.557564353189 0.868446369873156 161.557564353189 0.406768027491508 71.156429323448  
4.15             0.407932343819732 64.2344785380405 0.86719667149544 154.518478796157 0.867196671495439 154.518478796157 0.408002266956676 64.2223872602137 
4.2              0.410231695534513 57.2938517999733 0.865381686378537 147.463691870828 0.865381686378537 147.463691870828 0.410232938037579 57.2797669514495 
4.25             0.413551152878215 50.3420245206495 0.86296152913717 140.396899393447 0.862961529137172 140.396899393447 0.41347073613512 50.3296770034724 
4.3              0.417872512658855 43.3808364394966 0.859902260507689 133.322334962407 0.859902260507687 133.322334962407 0.41770435071678 43.3735773078193 
4.35             0.423156862581179 36.4128354933124 0.856178179242934 126.244783064354 0.856178179242933 126.244783064354 0.422900442130974 36.4134053503523 
4.4              0.429344981647706 29.4413038976839 0.851773878142105 119.169548286888 0.851773878142105 119.169548286888 0.429004136888373 29.451706762858  
4.45             0.436358528799263 22.4702891610024 0.846685999795932 112.102393447607 0.846685999795932 112.102393447607 0.435940322453551 22.491747041533  
4.5              0.444102136949159 15.5046046730016 0.840924645703556 105.049450153098 0.840924645703556 105.049450153098 0.443615833448532 15.5375757160417 
4.55             0.452466364487239 8.54977640592636 0.834514360027808 98.0171024015086 0.834514360027808 98.0171024015086 0.451922484724388 8.59402243774104 
4.6              0.461331350671332 1.61192629586225 0.827494590593898 91.0118446536026 0.827494590593898 91.0118446536026 0.46074080838517 1.66661663899914 
4.65             0.470570951620039 -5.30240489242073 0.819919540346141 84.0401181683686 0.819919540346141 84.0401181683686 0.469944281112849 -5.23856572975717 
4.7              0.480057092765117 -12.1864833853307 0.811857359601233 77.108131975337  0.811857359601233 77.108131975337  0.479403783805184 -12.1151154806722 
4.75             0.489664061563469 -19.0336397330706 0.803388683219088 70.2216768166947 0.803388683219087 70.2216768166947 0.48899201996328 -18.9565447027511 
4.8              0.499272481061952 -25.8375387998328 0.794604574458794 63.3859412881349 0.794604574458795 63.3859412881348 0.49858763337617 -25.7565616783986 
4.85             0.508772747000624 -32.5924451257836 0.785603985590377 56.6053391139218 0.785603985590378 56.6053391139218 0.508078806105765 -32.5093468882232 
4.9              0.518067770157256 -39.2934705377545 0.776490873006224 49.8833552161313 0.776490873006224 49.8833552161314 0.517366176118083 -39.2098152125138 
4.95             0.527074928740022 -45.9367968453745 0.767371104309257 43.2224165312453 0.767371104309256 43.2224165312452 0.526364977025569 -45.8538559035411 
5                0.535727186524287 -52.5198733464831 0.758349264913936 36.623792300042  0.758349264913937 36.6237923000419 0.535006353527042 -52.4385494679176 
5.05             0.543973352114746 -59.0415956633752 0.749525417464927 30.0875291190518 0.749525417464926 30.0875291190518 0.543237825470864 -58.9623681913889 
5.1              0.551777422050382 -65.5024776030804 0.740991804648967 23.6124301433683 0.740991804648967 23.6124301433683 0.55102283852772 -65.4253730870204 
5.15             0.559116843747864 -71.9048284260041 0.732829448166007 17.1960975858152 0.732829448166006 17.1960975858151 0.55833922627138 -71.8294216391438 
5.2              0.565979341806003 -78.2529383491677 0.725104651013402 10.8350747219579 0.725104651013402 10.8350747219579 0.565176201758789 -78.1783918922822 
5.25             0.572357704761436 -84.5532448946645 0.717865678768788 4.52514639599978 0.717865678768787 4.52514639599976 0.57152922350653 -84.4783982536115 
5.3              0.578241792440279 -90.8143869835959 0.711140560618441 -1.73812689584344 0.711140560618441 -1.73812689584343 0.577391900930458 -90.7379067629378 
5.35             0.583607449879406 -97.0469442107913 0.704938152061413 -7.95859463290446 0.704938152061412 -7.95859463290444 0.582744477407575 -96.9675419974426 
5.4              0.588403864117573 -103.262542889839 0.699256019560864 -14.1385245054822 0.699256019560865 -14.1385245054822 0.587540253856656 -103.179248746157 
5.45             0.592544977835328 -109.472048943361 0.694098655744327 -20.2778904485144 0.694098655744326 -20.2778904485144 0.591695493389129 -109.384489719083 
5.5              0.595915462954848 -115.683079563206 0.689504334670932 -26.3748646773363 0.689504334670933 -26.3748646773362 0.595093618584184 -115.591656026962 
5.55             0.598400272497285 -121.898213789148 0.685566060626444 -32.4284104842565 0.685566060626443 -32.4284104842565 0.597613746267595 -121.804035009007 
5.6              0.599928547949364 -128.116168864283 0.682420664512062 -38.442358590681 0.682420664512062 -38.4423585906809 0.59917597370431 -128.020662852311 
5.65             0.600494675334599 -134.336638109199 0.680195335025111 -44.4277593782926 0.680195335025111 -44.4277593782926 0.599767210094097 -134.240974216142 
5.7              0.600122913583971 -140.565178717636 0.678948714676404 -50.4002497148419 0.678948714676404 -50.4002497148419 0.599412373359408 -140.469919193769 
5.75             0.598800546964002 -146.812842856164 0.678665985703588 -56.374106865118 0.678665985703588 -56.374106865118 0.598111547082579 -146.718313822771 
5.8              0.596448984122323 -153.090609709671 0.679312276859699 -62.358785441074 0.6793122768597  -62.3587854410739 0.595808859688423 -152.998173914086 
5.85             0.592960069673613 -159.404589588234 0.680885977478668 -68.3603661271   0.680885977478669 -68.3603661271   0.592420977848134 -159.31856075678 
5.9              0.58825693886818 -165.756359635841 0.683433214155125 -74.3845905450427 0.683433214155125 -74.3845905450427 0.587888314277745 -165.686115936481 
5.95             0.582333326670407 -172.147737864128 0.687044264002201 -80.4380103090397 0.6870442640022  -80.4380103090397 0.582205856111919 -172.109694732937 
6                0.575258273464919 -178.588014856957 0.691872252233113 -86.5275590816522 0.691872252233114 -86.5275590816522 0.575421506612163 -178.607236690305 
