! Touchstone file from project sampleWidthScale-3
! Exported from HFSS-IE 2014.0.2
! Variables:
!  $perm = 6
!  impedance = 157.9ohm
!  insulationThickness = 0in
!  length = 4in
!  portSize = 1mm
!  sampleSide = 0.3875in
!  sampleThickness = 0.25in
!  scale = 3.1
!  spacing = 0.25in
!  wireDiam = 0.125in
!  wireRadius = 0.0625in
# GHZ S MA R 157.900000
! Terminal data exported
! Port[1] = Rectangle2_T1
! Port[2] = Rectangle2_T2
0.5              0.0642530144765795 -158.289585893291 0.997191967361551 -67.9737262919247 0.997191967361551 -67.9737262919247 0.0642816496431549 -158.341441650656 
0.55             0.0687063595004657 -166.268475569472 0.996152477802137 -74.6915251936129 0.996152477802137 -74.6915251936128 0.0687364880674602 -166.057006607098 
0.6              0.0736021058560468 -173.246233609648 0.995766481058603 -81.4633788656168 0.995766481058603 -81.4633788656168 0.073674831888897 -172.944641392139 
0.65             0.0786588101238419 -179.839711350796 0.995483508317179 -88.268309708707 0.995483508317178 -88.268309708707 0.0787772843552841 -179.554154592019 
0.7              0.0836792208060565 173.67498491856  0.995060642240411 -95.0888868972195 0.995060642240412 -95.0888868972195 0.0838198465388815 173.890769767492 
0.75             0.0885511354324884 167.190455674435 0.994426814502036 -101.91266744596 0.994426814502036 -101.91266744596 0.0886788902858563 167.319739055243 
0.8              0.093236564531138 160.671698462075 0.993600081061695 -108.731778214498 0.993600081061696 -108.731778214498 0.0933173504946004 160.721720782734 
0.85             0.0977516599155213 154.108406876713 0.992640618099545 -115.541965810985 0.992640618099544 -115.541965810985 0.0977608484095715 154.100469301472 
0.9              0.102144016220114 147.493891571141 0.991626088238947 -122.341734055543 0.991626088238947 -122.341734055543 0.102071984969176 147.455912387431 
0.95             0.106470156009665 140.817787888747 0.990639185932761 -129.131845432549 0.990639185932761 -129.131845432549 0.106325567582927 140.778383706123 
1                0.110773432268121 134.066964730933 0.98975832495011 -135.915284954735 0.98975832495011 -135.915284954735 0.110584432652214 134.050320374652 
1.05             0.11506424661926 127.233846701001 0.989041197284008 -142.697550519575 0.989041197284008 -142.697550519575 0.114876879698444 127.254982316841 
1.1              0.119314090268869 120.33297005193  0.988490688039693 -149.486527537111 0.988490688039693 -149.486527537111 0.119185967245252 120.393523256059 
1.15             0.123492681508258 113.419913359783 0.988008008154888 -156.290146348768 0.988008008154888 -156.290146348768 0.123478820009614 113.50557341739  
1.2              0.127672778014189 106.585386690987 0.98739014836647 -163.110280718349 0.98739014836647 -163.110280718349 0.127802366916193 106.668008100384 
1.25             0.132123107951727 99.8873550945823 0.986466338304085 -169.937295973095 0.986466338304085 -169.937295973095 0.132376224407119 99.9358712968725 
1.3              0.137180875142801 93.2663015121008 0.985300385623703 -176.7567915158  0.985300385623702 -176.7567915158  0.137488623566962 93.2644817129042 
1.35             0.142948576370942 86.5877888857943 0.984140758796622 176.434019745231 0.984140758796621 176.434019745231 0.143229074637775 86.5443076793003 
1.4              0.149252982379114 79.7837897951397 0.98312366416407 169.624106992195 0.983123664164068 169.624106992195 0.149454827262809 79.7240117652622 
1.45             0.155903982383359 72.8877555116812 0.98216427992086 162.802635873175 0.982164279920858 162.802635873175 0.156021986288357 72.8376702866045 
1.5              0.162849221503532 65.9621865903721 0.981100122639322 155.967201896774 0.981100122639322 155.967201896774 0.162913217618317 65.9384431984731 
1.55             0.170132515191497 59.0465842782426 0.979817084854181 149.121231966817 0.979817084854181 149.121231966817 0.170188599621495 59.0546838436542 
1.6              0.177814166357008 52.1537144457371 0.978267778088925 142.269411462402 0.978267778088925 142.269411462402 0.177910139960258 52.1904145003194 
1.65             0.185932264735904 45.2824191317892 0.976444203730289 135.415545514093 0.976444203730288 135.415545514093 0.186109295533801 45.3391074022158 
1.7              0.1944967034314  38.427631968018  0.974353004979117 128.562292483391 0.974353004979117 128.562292483391 0.194785515142752 38.4932469334806 
1.75             0.203494825801881 31.5848703802661 0.972003175551427 121.711524801967 0.972003175551427 121.711524801967 0.203914491521079 31.6480154857888 
1.8              0.21289811800799 24.7514071166018 0.969402184215016 114.864714514331 0.969402184215016 114.864714514331 0.213456198642224 24.8017267279974 
1.85             0.222667056396234 17.9260926549305 0.96655591190416 108.023191747135 0.966555911904161 108.023191747135 0.223360410223118 17.9550845322112 
1.9              0.232754103615954 11.1088307782036 0.963469834197247 101.188285926727 0.963469834197247 101.188285926727 0.233570048291546 11.1102612639633 
1.95             0.243105464640448 4.30009064683655 0.960150361524722 94.3613898609322 0.960150361524722 94.3613898609322 0.24402315492614 4.27014133828791 
2                0.253662138517701 -2.49944377432641 0.956605977008592 87.5439793123798 0.956605977008593 87.5439793123798 0.254654106254612 -2.56220543169709 
2.05             0.264360614649034 -9.28909007575976 0.952848106450524 80.7376084978806 0.952848106450526 80.7376084978806 0.26539445174609 -9.38385186710474 
2.1              0.275133413758991 -16.0682805006702 0.948891754779745 73.943892930001  0.948891754779745 73.943892930001  0.276173592091837 -16.1921938697045 
2.15             0.285909578961823 -22.8366026639806 0.944755968555434 67.1644854899522 0.944755968555435 67.1644854899522 0.28691940785291 -22.9850284606146 
2.2              0.296615168389757 -29.5937903717722 0.940464186990734 60.4010483751321 0.940464186990734 60.401048375132  0.297558898398982 -29.7605626026589 
2.25             0.307173776262569 -36.3396771761759 0.936044544694862 53.6552213950088 0.936044544694863 53.6552213950088 0.308018871059018 -36.5173745176438 
2.3              0.317507110871451 -43.0741160798501 0.931530193704811 46.9285849469485 0.931530193704812 46.9285849469485 0.318226727622064 -43.2543402245878 
2.35             0.327535692462738 -49.7968610165725 0.926959716852185 40.2226128059893 0.926959716852186 40.2226128059893 0.328111431639422 -49.9705326169135 
2.4              0.337179818696529 -56.5074012872318 0.922377691579421 33.5386043447799 0.922377691579422 33.5386043447799 0.337604813152826 -56.6651010792706 
2.45             0.346361105222202 -63.2047446538437 0.917835387634058 26.8775767516972 0.917835387634058 26.8775767516972 0.346643481278691 -63.3371525975231 
2.5              0.355005152518095 -69.8871722653346 0.913391343242266 20.240085918378  0.913391343242267 20.240085918378  0.355171733944898 -69.9856933758772 
2.55             0.363046123170391 -76.5520653674337 0.909110991384744 13.6259384426753 0.909110991384745 13.6259384426753 0.36314580604794 -76.6097716390251 
2.6              0.370433816987889 -83.1960585415537 0.905063463884388 7.03378672997319 0.905063463884389 7.0337867299732  0.370539076014268 -83.2090896982575 
2.65             0.377142158199187 -89.8159668890957 0.901312642184786 0.460730300051453 0.901312642184787 0.460730300051449 0.377345488265539 -89.7854237008422 
2.7              0.383173636412347 -96.4108639066241 0.897900845238355 -6.0976657569909 0.897900845238355 -6.09766575699091 0.38357400588462 -96.3448175298169 
2.75             0.38854933780043 -102.984683518868 0.894831915559774 -12.6462889484087 0.894831915559774 -12.6462889484087 0.389224742196499 -102.899103400697 
2.8              0.393280140290057 -109.546770240604 0.892074431134589 -19.1883086044329 0.892074431134589 -19.1883086044328 0.394250984257217 -109.463464953343 
2.85             0.397340698093341 -116.107932069132 0.889600669384778 -25.7237990754   0.889600669384777 -25.7237990754   0.398544247900404 -116.04856135676 
2.9              0.400680872803177 -122.675012977677 0.887430296755044 -32.2515692058534 0.887430296755044 -32.2515692058534 0.401981695205521 -122.653574755161 
2.95             0.403263212573968 -129.25056998218 0.885622136744093 -38.7727227922228 0.885622136744093 -38.7727227922228 0.404500300292747 -129.2691930614  
3                0.405075492742881 -135.837000883312 0.884223700160323 -45.2916194204823 0.884223700160324 -45.2916194204823 0.406115439691586 -135.887455193153 
3.05             0.406112255699741 -142.438466654519 0.883242185649835 -51.8138038677267 0.883242185649835 -51.8138038677267 0.406878450845227 -142.507193954121 
3.1              0.406361293951028 -149.059192339603 0.882654417765793 -58.3440616904612 0.882654417765793 -58.3440616904612 0.406834865637174 -149.132227978025 
3.15             0.405808552255787 -155.701485536341 0.882426159971133 -64.8860535514747 0.882426159971133 -64.8860535514746 0.406014038170184 -155.767437955001 
3.2              0.404449621209667 -162.365215249675 0.882521030865118 -71.442746266112 0.882521030865117 -71.442746266112 0.404438002366773 -162.416389165855 
3.25             0.402297986837532 -169.048236302888 0.882900193307866 -78.0167649573004 0.882900193307866 -78.0167649573004 0.40213293222966 -169.080665556662 
3.3              0.399389004491014 -175.74696991914 0.883519446446432 -84.6104274530025 0.883519446446432 -84.6104274530025 0.399137229278684 -175.760004655775 
3.35             0.39578188906675 177.54312878514  0.884327731605258 -91.2255496630449 0.884327731605258 -91.2255496630449 0.395506600412454 177.547336009706 
3.4              0.391561434411432 170.827103307364 0.885268544481442 -97.863155246985 0.885268544481441 -97.863155246985 0.391317582748249 170.844093561281 
3.45             0.386839630614627 164.109760809443 0.886284873926847 -104.523203270368 0.886284873926848 -104.523203270368 0.386670003818282 164.133259155368 
3.5              0.381755639924616 157.39437377957  0.887328126797751 -111.204468676341 0.88732812679775 -111.204468676341 0.381687289526251 157.416863676976 
3.55             0.37647048981358 150.680648079404 0.88837074584514 -117.904796967674 0.888370745845139 -117.904796967674 0.376511516715274 150.694173631744 
3.6              0.371150606382665 143.962311132588 0.889419154563177 -124.622067953353 0.889419154563176 -124.622067953353 0.371288086059796 143.959677678626 
3.65             0.365934844328223 137.225985152967 0.890516316012954 -131.356144189917 0.890516316012953 -131.356144189917 0.366135749747729 137.20247099076  
3.7              0.360891147590029 130.454937814615 0.89171345540819 -138.111329757845 0.891713455408189 -138.111329757845 0.361109272490456 130.410369693825 
3.75             0.355999913748659 123.641072086256 0.892995754849454 -144.896924582923 0.892995754849454 -144.896924582923 0.356191727280038 123.581548517195 
3.8              0.351227897145482 116.799905008465 0.89420227043373 -151.721965852451 0.89420227043373 -151.721965852451 0.351376353333376 116.737743058836 
3.85             0.346688697251277 109.968054884839 0.895064734924301 -158.58499446068 0.895064734924302 -158.58499446068 0.346824824006077 109.918508942904 
3.9              0.342708161799904 103.170376161079 0.895419170022821 -165.470880186282 0.895419170022822 -165.470880186282 0.342912609750982 103.145539208893 
3.95             0.339636272947314 96.3905307635932 0.895361642701243 -172.363899724772 0.895361642701244 -172.363899724772 0.340012298046239 96.3939719774944 
4                0.337614084557007 89.588039285883  0.895114379282714 -179.262464877697 0.895114379282713 -179.262464877697 0.338248167346523 89.6140881572136 
4.05             0.336585294294582 82.7377296818543 0.894783460135016 173.822647801352 0.894783460135016 173.822647801352 0.337521112684864 82.7751937157144 
4.1              0.336466722000686 75.8428999846731 0.894290320666327 166.880131296791 0.894290320666328 166.880131296791 0.337701269642458 75.879759515866  
4.15             0.337253489270565 68.9215738542564 0.893460881746805 159.905432225221 0.893460881746804 159.905432225221 0.338747004452959 68.948165149266  
4.2              0.339013565872003 61.9903874023885 0.89212379534174 152.900712073067 0.89212379534174 152.900712073067 0.340702907874929 62.0007602957035 
4.25             0.341838392742997 55.0575661083974 0.890154079885943 145.871930138397 0.890154079885943 145.871930138397 0.343648649925058 55.0496245119416 
4.3              0.34580009691975 48.1232410910406 0.887475458922143 138.826360658379 0.887475458922143 138.826360658379 0.347653270775973 48.0982378386549 
4.35             0.35092817831468 41.1827599018371 0.884047797589917 131.771334905158 0.884047797589919 131.771334905158 0.352749382308541 41.1444848505313 
4.4              0.357201853093765 34.23029849476   0.87985462963755 124.713879610514 0.879854629637551 124.713879610514 0.358923729251345 34.1841473164716 
4.45             0.364551989318895 27.2616793382273 0.874895515281654 117.66078273363  0.874895515281655 117.66078273363  0.366117889751264 27.2137215374268 
4.5              0.372868417897273 20.2761032603469 0.869183110879841 110.618766055898 0.869183110879842 110.618766055898 0.37423469266947 20.2322349330148 
4.55             0.382010108585159 13.2768255272848 0.862743262479943 103.594597041397 0.862743262479943 103.594597041397 0.383147677858927 13.2420670241117 
4.6              0.391816545462161 6.27094201012808 0.855616255949622 96.5950766760974 0.855616255949622 96.5950766760974 0.392711815163091 6.24891518085586 
4.65             0.402118945305453 -0.731477040751849 0.847857703710882 89.6269055819068 0.847857703710883 89.6269055819068 0.402774040146933 -0.738880528263525 
4.7              0.412750146482472 -7.71863276586393 0.83953811272497 82.6964696987421 0.83953811272497 82.6964696987421 0.413182375067149 -7.71139701076799 
4.75             0.423552291490378 -14.6783546382554 0.830740808582288 75.8096042705258 0.830740808582288 75.8096042705258 0.423792722152424 -14.6583115468254 
4.8              0.434381867059071 -21.5993451392326 0.821558450490083 68.9713936851977 0.821558450490083 68.9713936851976 0.434472877878687 -21.5699850367231 
4.85             0.445112146218539 -28.4721613613367 0.812088751946387 62.1860500561105 0.812088751946387 62.1860500561105 0.445103819525815 -28.4382889584691 
4.9              0.455633454150524 -35.2898605097167 0.802430184932981 55.4568925892165 0.802430184932981 55.4568925892165 0.45557872781604 -35.2570969778936 
4.95             0.465851864249488 -42.048296994787 0.792678436717597 48.7864291084637 0.792678436717597 48.7864291084637 0.465800464437159 -42.0224269872083 
5                0.475686925893701 -48.7460898243706 0.782924295043534 42.1765228195508 0.782924295043534 42.1765228195508 0.475678353564046 -48.732260100964 
5.05             0.485068914744114 -55.3842818881347 0.77325352157372 35.6286084968531 0.77325352157372 35.6286084968531 0.485125227639095 -55.3860827218564 
5.1              0.493936012339594 -61.9657034951106 0.76374910837121 29.1438961565478 0.763749108371209 29.1438961565478 0.494055897570233 -61.9842137034214 
5.15             0.502231911125567 -68.4940601212858 0.75449593619054 22.7234618543775 0.754495936190541 22.7234618543775 0.502388497341157 -68.5270200413555 
5.2              0.509904698548191 -74.9728262571911 0.745586973803448 16.3680823407586 0.745586973803448 16.3680823407586 0.510050264793978 -75.0142236331104 
5.25             0.516908355181453 -81.4041744653183 0.737128514494555 10.0776634851421 0.737128514494555 10.0776634851421 0.516988522738475 -81.4446667210414 
5.3              0.523208099794679 -87.7883850521802 0.729239839720937 3.85023168892674 0.729239839720937 3.85023168892673 0.523184753410497 -87.8170543690916 
5.35             0.528788799479511 -94.1243318108728 0.722041919308766 -2.31919547649583 0.722041919308766 -2.31919547649582 0.528664094408211 -94.1320717959524 
5.4              0.533661048420905 -100.411422741603 0.7156338933012  -8.43903345990232 0.7156338933012  -8.43903345990233 0.533486927652689 -100.39548562557 
5.45             0.537855327335715 -106.652500484146 0.710067459144475 -14.5198560876781 0.710067459144475 -14.5198560876782 0.53771201234928 -106.62032193497 
5.5              0.541398738046835 -112.855983775633 0.705341171147123 -20.5714171670237 0.705341171147122 -20.5714171670237 0.541341592904196 -112.825175583228 
5.55             0.544284945050929 -119.035346561488 0.701430228455427 -26.6000180932691 0.701430228455426 -26.6000180932691 0.54429018095074 -119.027580222118 
5.6              0.546460719852794 -125.206078692882 0.698333040295831 -32.6090664539609 0.698333040295831 -32.6090664539609 0.546420488757823 -125.236613458979 
5.65             0.547838208839648 -131.382676087304 0.696088035855367 -38.6027310103365 0.696088035855367 -38.6027310103365 0.547630185437877 -131.452052440246 
5.7              0.548315519189185 -137.577256367754 0.694744353285602 -44.5886798143419 0.694744353285603 -44.5886798143419 0.547905957126316 -137.671789272576 
5.75             0.547794928479136 -143.798681069167 0.694328120047508 -50.5772858891365 0.694328120047508 -50.5772858891365 0.547290569911867 -143.899803358939 
5.8              0.546211376000473 -150.052084638342 0.694839684656812 -56.5797122402854 0.694839684656812 -56.5797122402854 0.545809072469684 -150.14708755281 
5.85             0.543567498881183 -156.341068067678 0.696262482800971 -62.6075416401412 0.696262482800971 -62.6075416401412 0.543428285998481 -156.426917231686 
5.9              0.539945913455631 -162.672743987248 0.698558345240427 -68.6728882372224 0.698558345240427 -68.6728882372224 0.54006287902736 -162.74999785267 
5.95             0.535487804145936 -169.062882122511 0.701659289990097 -74.7872463318034 0.701659289990097 -74.7872463318034 0.535602063098173 -169.121699314639 
6                0.530356158654659 -175.539473391228 0.705477212685683 -80.9594355490711 0.705477212685683 -80.9594355490711 0.529943227916999 -175.540859028345 
