! Touchstone file from project sampleWidthScale-7
! Exported from HFSS-IE 2014.0.2
! Variables:
!  $perm = 6
!  impedance = 157.9ohm
!  insulationThickness = 0in
!  length = 4in
!  portSize = 1mm
!  sampleSide = 0.875in
!  sampleThickness = 0.25in
!  scale = 7
!  spacing = 0.25in
!  wireDiam = 0.125in
!  wireRadius = 0.0625in
# GHZ S MA R 157.900000
! Terminal data exported
! Port[1] = Rectangle2_T1
! Port[2] = Rectangle2_T2
0.5              0.0795856222458141 -159.187056103479 0.99601999373291 -68.8888894866622 0.99601999373291 -68.8888894866622 0.0796588665128969 -159.266152801064 
0.55             0.0857103599897284 -166.559679889763 0.994525866212741 -75.7410546629942 0.994525866212742 -75.7410546629942 0.0855904386379845 -166.649460363923 
0.6              0.0921241651965646 -173.43541876571 0.993659831108277 -82.6162095708035 0.993659831108278 -82.6162095708035 0.091926249909211 -173.511145365135 
0.65             0.0986109495532193 179.825977119077 0.992978720363679 -89.5027824899517 0.99297872036368 -89.5027824899517 0.0984121101269174 179.768566989025 
0.7              0.105014178822882 173.084557537548 0.992286167420439 -96.3920675273781 0.992286167420439 -96.3920675273781 0.104857907118992 173.040158414512 
0.75             0.111243422705141 166.2999038213   0.991514723172184 -103.279051645265 0.991514723172184 -103.279051645265 0.111145781018923 166.260917100679 
0.8              0.117264309925004 159.47171528438  0.990656536842886 -110.161840989722 0.990656536842886 -110.161840989722 0.117220961210167 159.431946683115 
0.85             0.123083750819145 152.613179256055 0.989724405982036 -117.040693038653 0.989724405982036 -117.040693038653 0.123077001190201 152.569321458519 
0.9              0.128737522676627 145.740148808861 0.988731410372894 -123.91703034554 0.988731410372895 -123.91703034554 0.128742978103886 145.692073545323 
0.95             0.134282808892395 138.866850982442 0.987682689531932 -130.792538754802 0.987682689531933 -130.792538754802 0.134275591176728 138.817217229779 
1                0.13979492837575 132.003027969165 0.986577315859099 -137.668410779761 0.986577315859099 -137.668410779761 0.139755450451816 131.956322265088 
1.05             0.145362773941355 125.149826388548 0.985420603989033 -144.54499506155 0.985420603989033 -144.54499506155 0.14528167401003 125.110703812417 
1.1              0.151070410973512 118.29548387435  0.9842420270442  -151.422527531982 0.9842420270442  -151.422527531982 0.150951119612546 118.266295117123 
1.15             0.156955253165034 111.41979203981  0.983092478438569 -158.303475998861 0.983092478438569 -158.303475998861 0.156811101066009 111.397841429075 
1.2              0.162979693857293 104.519092529792 0.981978813995292 -165.194288290381 0.981978813995292 -165.194288290381 0.162823013391444 104.495601991615 
1.25             0.169111084519666 97.631732136732  0.980777447921707 -172.100763407068 0.980777447921704 -172.100763407068 0.168938603325936 97.595012743797  
1.3              0.175471077299109 90.8066829015453 0.97930433028923 -179.019043941719 0.979304330289229 -179.019043941719 0.1752589388922  90.7487667313433 
1.35             0.182296868793166 84.0374066518657 0.977519679104817 174.062594815517 0.977519679104816 174.062594815517 0.182013108530926 83.9586800702008 
1.4              0.189727086222109 77.2660914760675 0.97555299736668 167.151477007964 0.975552997366679 167.151477007965 0.189350388611892 77.1740135683198 
1.45             0.197728894919646 70.4440227574605 0.973538564740449 160.246009470369 0.973538564740447 160.246009470369 0.197258290668802 70.3484716821208 
1.5              0.206194213706981 63.5593021897341 0.971516609410959 153.340848075284 0.971516609410958 153.340848075284 0.205647830969814 63.4688522086882 
1.55             0.215029018997829 56.6248387180707 0.969451488588511 146.431889564264 0.96945148858851 146.431889564264 0.214438172247985 56.5452526887801 
1.6              0.224177400420204 49.6606586985684 0.967279408656976 139.517664686008 0.967279408656976 139.517664686008 0.223580644175997 49.5948108285654 
1.65             0.233611927216698 42.684688247871  0.964938366802099 132.598805810368 0.964938366802099 132.598805810368 0.233050427296232 42.6330353414232 
1.7              0.243318950595104 35.7102524144446 0.962379235014733 125.677192693398 0.962379235014732 125.677192693398 0.242833054952466 35.6714131823405 
1.75             0.253288150684712 28.7463902367196 0.959567339214943 118.755322875484 0.959567339214942 118.755322875485 0.252914786058354 28.7176853685737 
1.8              0.263506647873774 21.798855250868  0.956480806283378 111.835940313174 0.956480806283378 111.835940313174 0.263277277405411 21.7767785072962 
1.85             0.273956059350537 14.8710440145588 0.953108370149816 104.92183725311  0.953108370149816 104.92183725311  0.273895069304632 14.851667835465  
1.9              0.284611148494947 7.96469194666498 0.949447486713833 98.0157546483737 0.949447486713832 98.0157546483737 0.284734617198333 7.94401557944832 
1.95             0.295439264882743 1.0803644014888  0.945502907889904 91.1203355136568 0.945502907889904 91.1203355136568 0.29575410955904 1.0546103400159  
2                0.306400164137125 -5.78219395879733 0.941285666781216 84.238106695055  0.941285666781216 84.238106695055  0.306903678059869 -5.81633162180145 
2.05             0.317446020762838 -12.6237975638941 0.936812404523613 77.3714762203226 0.936812404523613 77.3714762203226 0.318125817026142 -12.6689501151856 
2.1              0.328521565812936 -19.4456081431671 0.932104995785801 70.5227388914374 0.932104995785801 70.5227388914374 0.329355943457906 -19.5035716010773 
2.15             0.339564345089686 -26.248947383733 0.927190461232887 63.6940847015771 0.927190461232887 63.6940847015771 0.340523093823305 -26.3205606657799 
2.2              0.35050513454985 -33.0351165221984 0.922101180278117 56.8876044097746 0.922101180278116 56.8876044097746 0.351550799706552 -33.1201745487383 
2.25             0.361268589553016 -39.8052094536594 0.916875433772293 50.1052846044712 0.916875433772293 50.1052846044712 0.36235823221503 -39.9024079988652 
2.3              0.371774263446711 -46.559908208747 0.91155830866563 43.3489804591023 0.91155830866563 43.3489804591022 0.372861773774766 -46.6668199849218 
2.35             0.381938231771388 -53.2992533932085 0.906202965823901 36.6203471097205 0.906202965823902 36.6203471097204 0.382977286337454 -53.4123410641775 
2.4              0.391675724857784 -60.0223942703676 0.900872155535456 29.9206990111875 0.900872155535455 29.9206990111875 0.392623514024716 -60.1370784602071 
2.45             0.400905404430665 -66.7273576632411 0.895639546812626 23.2507514498793 0.895639546812626 23.2507514498793 0.401727267791014 -66.8381807528663 
2.5              0.409556109178203 -73.4109571790366 0.890589705702778 16.6101886264779 0.890589705702778 16.6101886264779 0.410231134248601 -73.5119221331619 
2.55             0.417576595997977 -80.0691244761722 0.885814173547169 9.99703157041094 0.885814173547169 9.99703157041096 0.41810388991684 -80.1543442058362 
2.6              0.424946856929493 -86.6981613545037 0.881399270291638 3.40692961759978 0.881399270291638 3.40692961759981 0.425351270600451 -86.7630101634134 
2.65             0.431684164315785 -93.2974273467042 0.877401215263229 -3.16710406425085 0.877401215263229 -3.16710406425083 0.432018331313325 -93.3403615308042 
2.7              0.43782864017416 -99.8730141747784 0.87381256157862 -9.73340557836437 0.87381256157862 -9.73340557836437 0.438165474184904 -99.8979274055191 
2.75             0.443394361712152 -106.439202705309 0.870547926390623 -16.2978417168875 0.870547926390623 -16.2978417168875 0.443803239992382 -106.457377242856 
2.8              0.448309570060778 -113.012323062495 0.867497282731571 -22.8592099301475 0.867497282731571 -22.8592099301475 0.448816530649474 -113.042029090282 
2.85             0.452427896817206 -119.597995757788 0.864642965904353 -29.4098642073437 0.864642965904354 -29.4098642073437 0.452977966670902 -119.660080064695 
2.9              0.455647022426915 -126.186421855461 0.862113801382723 -35.9445291594724 0.862113801382723 -35.9445291594724 0.456098804018384 -126.297096233396 
2.95             0.458002553918524 -132.765604798282 0.860076711265765 -42.4680245154473 0.860076711265765 -42.4680245154473 0.458166614418063 -132.930720336095 
3                0.459609879800085 -139.33638073144 0.858593207570323 -48.9920400443143 0.858593207570323 -48.9920400443143 0.459306585281376 -139.550575360268 
3.05             0.460546222600143 -145.911487745526 0.85760568908157 -55.5266105383129 0.85760568908157 -55.5266105383129 0.459648483395993 -146.161577810419 
3.1              0.46081149050364 -152.504965399559 0.857017024867637 -62.0763591997948 0.857017024867637 -62.0763591997948 0.459259036710978 -152.77454731066 
3.15             0.460365125298306 -159.12517083787 0.856751940621921 -68.642113285096 0.856751940621921 -68.642113285096 0.458158249443511 -159.398143383113 
3.2              0.459172584139901 -165.774232796686 0.85676877429303 -75.2236007924716 0.856768774293031 -75.2236007924716 0.456358202789846 -166.036707647944 
3.25             0.457229662021539 -172.450374014151 0.857046412216512 -81.8209251093367 0.857046412216512 -81.8209251093367 0.453887655310673 -172.691436887673 
3.3              0.454567533222749 -179.150223407959 0.857569842004748 -88.4348463726381 0.857569842004748 -88.4348463726381 0.450799893094446 -179.362152426683 
3.35             0.45124904720966 174.129690297559 0.85832249849321 -95.066526318752 0.858322498493211 -95.066526318752 0.447171443328116 173.951338220703 
3.4              0.447362587321323 167.392065890937 0.859285210623505 -101.717222044318 0.859285210623505 -101.717222044318 0.443096940333559 167.24830577385  
3.45             0.443015001630908 160.638239557868 0.86043919272133 -108.388189327389 0.86043919272133 -108.388189327389 0.438681454764668 160.526416004054 
3.5              0.438322409205989 153.867775970405 0.861769688081459 -115.080943988141 0.861769688081459 -115.080943988141 0.434029172305563 153.78134851506  
3.55             0.43339736942684 147.078587630159 0.863264976927421 -121.797930847832 0.86326497692742 -121.797930847832 0.429227344226315 147.007259647293 
3.6              0.428334688238263 140.26849055398  0.864902590297644 -128.543335395193 0.864902590297644 -128.543335395193 0.424329250717707 140.199257527354 
3.65             0.423208822738619 133.439090777605 0.866616530186103 -135.323000304042 0.866616530186103 -135.323000304042 0.419352834886357 133.358983466938 
3.7              0.418107624036979 126.600399520646 0.868260701313939 -142.141606876504 0.868260701313938 -142.141606876504 0.414326128847987 126.501382304747 
3.75             0.413206374345188 119.768865904445 0.869627439851413 -148.996841575866 0.869627439851413 -148.996841575866 0.40938813079624 119.653776773203 
3.8              0.408801139081581 112.951583087349 0.870574452895438 -155.87631348019 0.870574452895438 -155.87631348019 0.404854543865389 112.837330838791 
3.85             0.405186255908537 106.129174141051 0.871161954699104 -162.765487362362 0.871161954699104 -162.765487362361 0.401102744567227 106.042834036746 
3.9              0.402461113053327 99.2652868113943 0.871593793238862 -169.66128951012 0.871593793238862 -169.66128951012 0.3983402039351  99.2338830001907 
3.95             0.400516444712026 92.3377932598145 0.871997089176225 -176.574300224503 0.871997089176224 -176.574300224503 0.396534871065393 92.3787008234452 
4                0.399208735156827 85.3539814083416 0.872306623859283 176.482114488218 0.872306623859283 176.482114488218 0.395563080523488 85.471384183894  
4.05             0.398499968221715 78.3391172270629 0.872333489286487 169.501378849852 0.872333489286487 169.501378849852 0.395359615612868 78.5258270499542 
4.1              0.398465288358245 71.318980079528  0.871880104279589 162.484988427254 0.871880104279588 162.484988427254 0.395948576750999 71.5602747909155 
4.15             0.39923356288239 64.3108983958173 0.870800998050947 155.439270617871 0.870800998050948 155.439270617871 0.397401843191311 64.5881524810034 
4.2              0.400931813090922 57.3229475066088 0.869010038372271 148.372186362326 0.869010038372271 148.372186362326 0.399792613931315 57.6163839133122 
4.25             0.403654862456676 50.3565692439401 0.866465891128923 141.291617490616 0.866465891128923 141.291617490616 0.403168303130314 50.6471864233601 
4.3              0.407454769293975 43.4095589748325 0.863156129074706 134.204820568277 0.863156129074706 134.204820568277 0.407540496635738 43.6804388855965 
4.35             0.41234067072068 36.4783694684071 0.859086511512157 127.118448381073 0.859086511512157 127.118448381073 0.412884398858502 36.7155315955289 
4.4              0.418282983112271 29.5596289088477 0.854275422544519 120.038746533308 0.85427542254452 120.038746533308 0.419142470728553 29.7525362924937 
4.45             0.425219139784994 22.6510323451282 0.848751754018448 112.971740659497 0.848751754018448 112.971740659497 0.426229651079555 22.7928226970733 
4.5              0.433059835918476 15.7517729186887 0.842554613465754 105.923347540283 0.842554613465754 105.923347540283 0.434039117926276 15.839279622935  
4.55             0.441695502283581 8.86263254022873 0.835733704851201 98.8993959952838 0.835733704851201 98.8993959952838 0.442448223586863 8.89626621958825 
4.6              0.451002966888279 1.98581076818639 0.828349635653696 91.905562873448  0.828349635653695 91.905562873448  0.451324458803721 1.96938520207931 
4.65             0.460852306459579 -4.87546037384173 0.820473678473396 84.9472340009114 0.820473678473397 84.9472340009114 0.460531344301455 -4.93485342133789 
4.7              0.471113890100746 -11.717501889003 0.81218666856989 78.0292967095316 0.81218666856989 78.0292967095316 0.469934160152162 -11.8094253924089 
4.75             0.481665614128237 -18.5370186060278 0.803576727143373 71.1558601978544 0.803576727143372 71.1558601978544 0.479405485922935 -18.6472025779333 
4.8              0.492400198536481 -25.3323457861735 0.794735222158738 64.3298793049736 0.794735222158738 64.3298793049736 0.488830712243069 -25.4413587182945 
4.85             0.503231498653799 -32.1055731704383 0.78574934006327 57.5526235715779 0.785749340063269 57.5526235715779 0.498114123042386 -32.1857870632044 
4.9              0.514094054005631 -38.8666985662871 0.776686328780649 50.8229140612305 0.776686328780649 50.8229140612305 0.507187069761418 -38.875667679135 
4.95             0.524907632756884 -45.6423903075561 0.767554240225271 44.1363141443136 0.767554240225271 44.1363141443135 0.516021115112313 -45.5087739122885 
5                0.53537760873178 -52.4919879128438 0.75819803261986 37.4868849695682 0.758198032619859 37.4868849695682 0.52464503185159 -52.089788069344 
5.05             0.544182475204932 -59.5010001183822 0.748112465998502 30.888186143423  0.748112465998501 30.888186143423  0.533101002311359 -58.6434841639728 
5.1              0.547935744241715 -66.5277133339579 0.73699076074481 24.4473734674813 0.73699076074481 24.4473734674813 0.541012825633108 -65.2184221541564 
5.15             0.547684587818492 -72.9098853427643 0.727250194335571 18.2593400787431 0.72725019433557 18.259340078743  0.547440309828618 -71.765609637182 
5.2              0.55084913565143 -78.7855414586687 0.720316991653398 12.1117469282412 0.720316991653398 12.1117469282412 0.552931700159241 -78.1758172021947 
5.25             0.556855680328812 -84.7194245755489 0.714376955221937 5.91305808747639 0.714376955221937 5.9130580874764  0.558302042320405 -84.4892500056967 
5.3              0.563173181277354 -90.7780400652705 0.70867443508922 -0.290470674342058 0.70867443508922 -0.290470674342063 0.563555730567597 -90.7515306095015 
5.35             0.568875075354452 -96.902327432314 0.703222605235007 -6.46892022356024 0.703222605235007 -6.46892022356025 0.568548175717347 -96.9747170615338 
5.4              0.573713710497257 -103.053050241824 0.698147911643519 -12.6112943443152 0.698147911643519 -12.6112943443152 0.573119514617521 -103.160473904813 
5.45             0.577620540085267 -109.211137794661 0.693567123832639 -18.7136394060831 0.693567123832639 -18.7136394060831 0.577072342352764 -109.312191416581 
5.5              0.580580842758964 -115.367497664257 0.689583941031263 -24.7756888222002 0.689583941031264 -24.7756888222001 0.580211435250978 -115.439544154558 
5.55             0.582618933062319 -121.518138562785 0.686298967086718 -30.8017786488608 0.686298967086719 -30.8017786488608 0.582420197294181 -121.556296956757 
5.6              0.583798294750109 -127.663648838999 0.68380809630081 -36.8016887690316 0.683808096300811 -36.8016887690316 0.583692278932011 -127.675460017324 
5.65             0.584198518103807 -133.810487472155 0.682184473936766 -42.7889715199111 0.682184473936766 -42.7889715199111 0.584094554430171 -133.807700054509 
5.7              0.583869482573007 -139.970650079705 0.681465552742278 -48.777226905319 0.681465552742278 -48.777226905319 0.583700670701111 -139.962693167851 
5.75             0.582797034532161 -146.158101960109 0.681664056327997 -54.7771711509946 0.681664056327997 -54.7771711509946 0.582541483612421 -146.149665474991 
5.8              0.580908736660771 -152.384365496664 0.682787098915133 -60.7967282527963 0.682787098915133 -60.7967282527963 0.5805929861784  -152.376426197845 
5.85             0.578107396409959 -158.656563505634 0.68483632088045 -66.8431596230834 0.68483632088045 -66.8431596230834 0.577789342471249 -158.648613112963 
5.9              0.574301132374454 -164.978167837178 0.687787986222376 -72.924644814792 0.687787986222376 -72.924644814792 0.574038110400442 -164.969620428562 
5.95             0.569418463857909 -171.350560955418 0.69157264320833 -79.0500610707072 0.691572643208329 -79.0500610707072 0.569231051457748 -171.340345107321 
6                0.563417787302271 -177.774417549763 0.696070860074449 -85.2273270480774 0.696070860074448 -85.2273270480774 0.563259076244492 -177.758527347933 
