! Touchstone file from project sampleWidthScale-4
! Exported from HFSS-IE 2014.0.2
! Variables:
!  $perm = 6
!  impedance = 157.9ohm
!  insulationThickness = 0in
!  length = 4in
!  portSize = 1mm
!  sampleSide = 0.5in
!  sampleThickness = 0.25in
!  scale = 4
!  spacing = 0.25in
!  wireDiam = 0.125in
!  wireRadius = 0.0625in
# GHZ S MA R 157.900000
! Terminal data exported
! Port[1] = Rectangle2_T1
! Port[2] = Rectangle2_T2
0.5              0.0713643598205189 -158.662413029152 0.99671669690239 -68.4074741895718 0.99671669690239 -68.4074741895718 0.0713787066921978 -158.738128143308 
0.55             0.0762977834254563 -166.616550393436 0.994823751060898 -75.2045104078039 0.994823751060901 -75.2045104078039 0.0765775620621079 -166.112993345306 
0.6              0.0816934956068066 -173.544954028884 0.993938633295132 -82.0272309196819 0.993938633295137 -82.0272309196818 0.0821556085895839 -172.876689106674 
0.65             0.0873483987399846 179.90325455105  0.993455904412534 -88.8658169334569 0.993455904412536 -88.8658169334569 0.087884861744092 -179.50129763617 
0.7              0.093084058773304 173.420569674684 0.993071084592949 -95.7111614850882 0.993071084592949 -95.7111614850882 0.0935796882231173 173.831763833238 
0.75             0.0987637581922066 166.880503600511 0.99264960992467 -102.556980143041 0.992649609924672 -102.556980143041 0.0991197439043811 167.076797856832 
0.8              0.104299003651312 160.245256996558 0.992146074168273 -109.399965522227 0.992146074168274 -109.399965522227 0.104447829241153 160.243313262093 
0.85             0.109644928780529 153.517362367176 0.991555678282936 -116.239213466797 0.991555678282936 -116.239213466797 0.109556753599147 153.358667220228 
0.9              0.114791952431402 146.716543801362 0.990885669744884 -123.075434930451 0.990885669744884 -123.075434930451 0.114475591518018 146.452723264917 
0.95             0.119759379480339 139.86956427951  0.990139373100139 -129.910112376579 0.990139373100138 -129.910112376579 0.119260348842974 139.552373905378 
1                0.124594260891095 133.00546309687  0.989309838210649 -136.7446048017  0.989309838210648 -136.7446048017  0.12399072410519 132.679100588691 
1.05             0.129375842300302 126.150769969758 0.988384742409053 -143.579250333043 0.988384742409051 -143.579250333043 0.128771129500924 125.845066492533 
1.1              0.13421840139035 119.320572654116 0.987366817431829 -150.412911244968 0.987366817431829 -150.412911244968 0.133726151695939 119.045051958864 
1.15             0.139251493777957 112.506674709038 0.986304004664811 -157.24413891754 0.986304004664812 -157.24413891754 0.138968487177778 112.248157484946 
1.2              0.144559289364326 105.678314628123 0.985287976473294 -164.074754581935 0.985287976473294 -164.074754581935 0.14452820573167 105.407589998639 
1.25             0.150129560024174 98.8143316048522 0.984366238602998 -170.912321792002 0.984366238602996 -170.912321792002 0.150313229379936 98.5044827978771 
1.3              0.15592345075184 91.9369266696111 0.98344186068106 -177.764713440934 0.98344186068106 -177.764713440934 0.15622215117481 91.5833749006903 
1.35             0.16200405242212 85.0850921407892 0.982346075337248 175.36863847151  0.982346075337248 175.36863847151  0.162313608662337 84.7100491738916 
1.4              0.168511056276271 78.263164487443  0.981006922855477 168.495035613888 0.981006922855477 168.495035613888 0.168773612100857 77.9013924014036 
1.45             0.175534617613563 71.4438947668757 0.979466991417426 161.619957324732 0.979466991417425 161.619957324732 0.175746937633356 71.124720923966  
1.5              0.183078091099155 64.6026187023501 0.97778605565102 154.744093888118 0.97778605565102 154.744093888118 0.183269605153097 64.3410341631098 
1.55             0.191101637945785 57.7319171948467 0.975983014935753 147.865815406353 0.975983014935753 147.865815406353 0.19130915614809 57.5289546861476 
1.6              0.199561944200996 50.8366976043604 0.974038172421625 140.983737814286 0.974038172421624 140.983737814286 0.199813576655778 50.6837726879896 
1.65             0.208424573687755 43.926148948479  0.971913834202051 134.097687192822 0.971913834202052 134.097687192822 0.208732765115264 43.8096040008978 
1.7              0.217661441400385 37.0091652474288 0.969570162865397 127.2086843411   0.969570162865398 127.2086843411   0.21802162032714 36.9137279137165 
1.75             0.227245089686529 30.0928597921673 0.966973406088251 120.318638645791 0.966973406088252 120.318638645791 0.227637165037555 30.0039456554167 
1.8              0.237144283612035 23.1825730209029 0.964099360184315 113.430044084417 0.964099360184315 113.430044084417 0.237535456657096 23.0876904559329 
1.85             0.247321673958344 16.2823506471151 0.960934584543766 106.545741665515 0.960934584543767 106.545741665515 0.247669822621829 16.1718676395818 
1.9              0.257733148856427 9.39544159727939 0.957476672379718 99.6687370829904 0.957476672379718 99.6687370829904 0.25799042807591 9.26290905567831 
1.95             0.268328370666983 2.52466512239602 0.953734086709444 92.802050545096  0.953734086709443 92.802050545096  0.268444838244495 2.36683379141878 
2                0.279052102232635 -4.32738126862033 0.94972568381278 85.9485816757083 0.94972568381278 85.9485816757083 0.278979246878704 -4.51075265390295 
2.05             0.28984602793716 -11.1582609103604 0.945479887508573 79.1109805487302 0.945479887508572 79.1109805487302 0.289540107153422 -11.364735097612 
2.1              0.300650825015581 -17.9657631945373 0.941033423212423 72.2915228460581 0.941033423212421 72.2915228460581 0.300075942417479 -18.1906395551664 
2.15             0.311408242916415 -24.7480754128146 0.936429510465683 65.4919930352899 0.936429510465683 65.4919930352899 0.310539117405373 -24.9848542616273 
2.2              0.322062910204299 -31.5040444984198 0.931715424201037 58.7135854496283 0.931715424201038 58.7135854496282 0.320887314129472 -31.7449178591238 
2.25             0.332563510226063 -38.2335110540135 0.926939370968392 51.9568404812868 0.926939370968393 51.9568404812867 0.331084376061577 -38.4698702382382 
2.3              0.342862846788315 -44.9376881424011 0.922146713877734 45.2216428790221 0.922146713877724 45.2216428790221 0.341100052557016 -45.160651543502 
2.35             0.35291617113949 -51.6195298249844 0.917375781441663 38.5073215442672 0.917375781441662 38.5073215442671 0.350907997227976 -51.8205075066546 
2.4              0.362677026539239 -58.283976261305 0.912653922695185 31.8129022075984 0.912653922695182 31.8129022075984 0.360481202109229 -58.4553006872683 
2.45             0.372089993631896 -64.9378581638193 0.907995281888723 25.1375640262418 0.907995281888721 25.1375640262419 0.369784072520139 -65.0735202551424 
2.5              0.381080596377015 -71.5890935856856 0.903403057887408 18.4813067044434 0.903403057887406 18.4813067044434 0.37876105131881 -71.6856230943723 
2.55             0.38954522168548 -78.2446860742862 0.898880399909321 11.8456813472033 0.898880399909321 11.8456813472033 0.387324049904382 -78.3021881328592 
2.6              0.397349302555523 -84.9072087811003 0.894453612891789 5.23409358408584 0.894453612891789 5.23409358408578 0.395346115305918 -84.9304793610845 
2.65             0.404349008865824 -91.5705589726822 0.890203998015803 -1.34929697742197 0.890203998015802 -1.34929697742185 0.402675928552018 -91.5699911880945 
2.7              0.410450253016411 -98.218420906864 0.886284590252398 -7.90305376938029 0.886284590252399 -7.90305376938024 0.409187800510001 -98.2100257438876 
2.75             0.415685927513337 -104.831525855015 0.882875631846303 -14.4332684189372 0.8828756318463  -14.4332684189373 0.414853075713239 -104.834941544413 
2.8              0.420224912333249 -111.405292295891 0.880061911129038 -20.9543107808912 0.880061911129039 -20.9543107808913 0.419757184805175 -111.438833455039 
2.85             0.424227069322459 -117.962297042468 0.877739663525997 -27.48007778127  0.877739663525996 -27.48007778127  0.423985362416143 -118.036089555942 
2.9              0.42765579687944 -124.536957381873 0.875716508310344 -34.0126850597321 0.875716508310345 -34.0126850597321 0.427475771237736 -124.648347927039 
2.95             0.430304774305989 -131.144534892343 0.873922812011637 -40.544377288033 0.873922812011639 -40.5443772880331 0.430060722921731 -131.279723227092 
3                0.432012885880628 -137.77442877014 0.872451951545743 -47.0705311107952 0.872451951545747 -47.0705311107953 0.431654103132301 -137.915035346942 
3.05             0.432777087408835 -144.410229331759 0.871413993594247 -53.5956626363724 0.87141399359425 -53.5956626363725 0.432323017898433 -144.539916936292 
3.1              0.432688025443922 -151.04560603604 0.870828261665007 -60.1284702865487 0.87082826166501 -60.1284702865489 0.432200199299947 -151.15369391246 
3.15             0.431836045249338 -157.684208146791 0.870636727978248 -66.6757371972425 0.870636727978248 -66.6757371972424 0.431388401583049 -157.76634331782 
3.2              0.430277088544411 -164.333015101524 0.870761612681948 -73.2406004825402 0.870761612681948 -73.2406004825402 0.429934748319132 -164.390196910915 
3.25             0.428043875497174 -170.99757297131 0.871142167473076 -79.8238282653704 0.871142167473076 -79.8238282653704 0.427851261489671 -171.034621460882 
3.3              0.42516704205825 -177.680576874518 0.871741647532712 -86.4255745420787 0.871741647532713 -86.4255745420787 0.42514289537508 -177.70460624582 
3.35             0.421689365315629 175.617697139889 0.872538357659479 -93.0464580581116 0.872538357659479 -93.0464580581117 0.42182609639868 175.598626273295 
3.4              0.417671408422992 168.89851771887  0.873513235160711 -99.6878731539057 0.873513235160712 -99.6878731539057 0.417937130354966 168.876589561254 
3.45             0.413192132032005 162.164016091877 0.874640010139491 -106.351784492988 0.874640010139493 -106.351784492988 0.413534731236542 162.132780899613 
3.5              0.408348007830948 155.416769976179 0.875879901834695 -113.040245482961 0.875879901834695 -113.04024548296 0.408701487843697 155.372261481613 
3.55             0.403252525472021 148.659424777267 0.877181612368446 -119.754801521518 0.877181612368446 -119.754801521519 0.403546566007367 148.601238936372 
3.6              0.398035627089611 141.893978301384 0.878487750150622 -126.495942584775 0.878487750150622 -126.495942584775 0.398209578217816 141.826060171458 
3.65             0.392839237026968 135.120467342973 0.879748394935899 -133.262926810504 0.879748394935898 -133.262926810504 0.392860754937872 135.050988904928 
3.7              0.387802224378849 128.335614541853 0.88093718149099 -140.054507000734 0.880937181490989 -140.054507000734 0.387686879343334 128.27496743862  
3.75             0.383034000682591 121.53370886953  0.882053007086468 -146.87077406619 0.882053007086467 -146.87077406619 0.382854919839812 121.489903947008 
3.8              0.378599869714766 114.712228455966 0.883086871096593 -153.714708992399 0.88308687109659 -153.714708992399 0.378471478847031 114.684803320798 
3.85             0.374557363429811 107.878744519342 0.883971473768762 -160.590585913007 0.88397147376876 -160.590585913007 0.374588012029904 107.855081587306 
3.9              0.371027765626027 101.048486694049 0.8845820624434  -167.499469387152 0.884582062443399 -167.499469387152 0.371264618372624 101.006621565419 
3.95             0.368210245285399 94.2310806079854 0.884806663858347 -174.437318986516 0.884806663858347 -174.437318986516 0.368615177894887 94.1482348870105 
4                0.366308324638859 87.4218367742035 0.884598866859938 178.601754635656 0.884598866859939 178.601754635656 0.366778557392809 87.2829639689359 
4.05             0.365457207718915 80.6065378302346 0.883958749732466 171.621751825429 0.883958749732467 171.621751825429 0.36586849709707 80.4081822439401 
4.1              0.365714285167987 73.7710420253674 0.882887843290544 164.624250988366 0.882887843290546 164.624250988366 0.365958487815018 73.5203968772805 
4.15             0.36708753750709 66.9064720082237 0.88136692367576 157.609881039582 0.881366923675757 157.609881039582 0.367093191042793 66.6180658043221 
4.2              0.36956177665499 60.0094797149258 0.879358134200927 150.579678023675 0.879358134200927 150.579678023674 0.369300229972169 59.701561308911  
4.25             0.373110326206938 53.0806267771605 0.876815329593052 143.535674270617 0.876815329593052 143.535674270617 0.372593483261779 52.7721523199482 
4.3              0.377696675445059 46.122856338835  0.873692991614237 136.480963915922 0.873692991614237 136.480963915922 0.376970792675711 45.8312489437709 
4.35             0.383272460206799 39.1405594890624 0.869951697807086 129.419570692698 0.869951697807085 129.419570692697 0.382410270414113 38.88016508755   
4.4              0.38977532555516 32.1391065725624 0.865561074273581 122.356289201733 0.865561074273581 122.356289201733 0.388867449769645 31.9202433356277 
4.45             0.397127941270052 25.1246161707963 0.860501434149441 115.29655230277  0.860501434149439 115.296552302769 0.396274001798662 24.953138489771  
4.5              0.405238343378955 18.1038039949953 0.854764857527439 108.24632516218  0.85476485752744 108.24632516218  0.404538057853182 17.9811157638433 
4.55             0.414001386138074 11.0838338450855 0.848356054339234 101.212012134502 0.848356054339233 101.212012134502 0.413545959643081 11.007283255541  
4.6              0.423301000122813 4.07214623989413 0.841293106546837 94.2003629984909 0.841293106546836 94.2003629984909 0.423165213276556 4.03572411881902 
4.65             0.433012965510984 -2.92373107594258 0.833608073316284 87.2183691274236 0.833608073316285 87.2183691274237 0.433248422387519 -2.92847673972858 
4.7              0.443007952929987 -9.89637450967149 0.825347407452533 80.2731438607996 0.825347407452534 80.2731438607996 0.443637978342909 -9.87929939582918 
4.75             0.453154637609795 -16.8386394430799 0.816572132742563 73.3717835145103 0.816572132742564 73.3717835145103 0.454171286988355 -16.809928896408 
4.8              0.463322752429913 -23.7438033738611 0.80735774385856 66.5212060887704 0.807357743858562 66.5212060887704 0.464686314397314 -23.7129470134166 
4.85             0.473386009860864 -30.6056685362536 0.797793796678197 59.7279642253883 0.797793796678197 59.7279642253883 0.475027241211986 -30.5805577947994 
4.9              0.483224887136991 -37.4186230232728 0.787983147373972 52.9980279855003 0.787983147373973 52.9980279855006 0.485050026513844 -37.4048354996122 
4.95             0.492729325413684 -44.1776682222788 0.778040768110784 46.3365324076965 0.778040768110786 46.3365324076966 0.494627695484211 -44.1779916761306 
5                0.501801431427556 -50.8784300111583 0.768092013270178 39.7474856201623 0.768092013270179 39.7474856201624 0.503655175520037 -50.8926671341912 
5.05             0.510358274432064 -57.5171820449202 0.758270131636958 33.2334369590412 0.75827013163696 33.2334369590414 0.512053502790403 -57.5422643042235 
5.1              0.518334818062607 -64.0909222438049 0.748712717458609 26.7951133401933 0.74871271745861 26.7951133401935 0.519773183319463 -64.1213463289146 
5.15             0.525686872731468 -70.5975583628404 0.739556675926876 20.4310499168121 0.739556675926876 20.4310499168123 0.526796373439893 -70.6261408836967 
5.2              0.532393622619417 -77.0362721153234 0.730931190482355 14.1372741718407 0.730931190482355 14.1372741718407 0.533137261615574 -77.0551949603644 
5.25             0.538458660825298 -83.4081312523161 0.722948258961564 7.9071593765833  0.722948258961565 7.90715937658335 0.538839474148186 -83.4102168853515 
5.3              0.543907478511876 -89.7169719826113 0.715690955171849 1.73164724587536 0.715690955171848 1.73164724587539 0.543968435142555 -89.6970767659805 
5.35             0.548778222896556 -95.970414922929 0.709201313638711 -4.39987482436707 0.709201313638711 -4.39987482436706 0.548595692860883 -95.9267486457937 
5.4              0.55310243622228 -102.180529624045 0.703473334313919 -10.4977779058589 0.703473334313918 -10.497777905859 0.552772631742644 -102.115598015129 
5.45             0.556876298610714 -108.363173573549 0.698461423680546 -16.5695918658088 0.698461423680546 -16.5695918658089 0.55649582703448 -108.283932522492 
5.5              0.560034028690839 -114.534897308558 0.694115345830752 -22.6177299725003 0.694115345830752 -22.6177299725004 0.559678854575478 -114.451719833122 
5.55             0.562449900708106 -120.707630928362 0.690437901683652 -28.6399529888832 0.690437901683652 -28.6399529888833 0.56216072402163 -120.632012714001 
5.6              0.56399182384774 -126.884586486888 0.687526739552687 -34.6345678867792 0.687526739552687 -34.6345678867793 0.56377461445299 -126.826225464642 
5.65             0.564602199875904 -133.062732505343 0.68554193156887 -40.607953843421 0.68554193156887 -40.607953843421 0.564445743525483 -133.027308287722 
5.7              0.564325756559909 -139.242213884861 0.684597699241976 -46.5768386188793 0.684597699241976 -46.5768386188793 0.564224761909701 -139.230997527437 
5.75             0.56323841723465 -145.43398762073 0.684677850628453 -52.5610269713575 0.684677850628453 -52.5610269713576 0.563202850224261 -145.444927683862 
5.8              0.561349206738362 -151.657440574548 0.68566757870847 -58.5734033512337 0.68566757870847 -58.5734033512337 0.56139003171024 -151.685636354528 
5.85             0.55857902763323 -157.931958577735 0.687460495257405 -64.6170767475284 0.687460495257405 -64.6170767475284 0.55868236858986 -157.967076248423 
5.9              0.554812380225031 -164.273177512559 0.690034483776456 -70.6897913088017 0.690034483776456 -70.6897913088017 0.554933834735418 -164.292135013095 
5.95             0.549870199748867 -170.701107630552 0.693497702257619 -76.7870184524636 0.693497702257619 -76.7870184524636 0.55006875193594 -170.650796238329 
6                0.543934442138114 -177.081202309973 0.697943377772561 -82.9738477611724 0.697943377772561 -82.9738477611724 0.544188124882937 -177.072949570497 
