! Touchstone file from project sampleWidthScale-8
! Exported from HFSS-IE 2014.0.2
! Variables:
!  $perm = 6
!  impedance = 157.9ohm
!  insulationThickness = 0in
!  length = 4in
!  portSize = 1mm
!  sampleSide = 1in
!  sampleThickness = 0.25in
!  scale = 8
!  spacing = 0.25in
!  wireDiam = 0.125in
!  wireRadius = 0.0625in
# GHZ S MA R 157.900000
! Terminal data exported
! Port[1] = Rectangle2_T1
! Port[2] = Rectangle2_T2
0.5              0.0811005162798295 -159.38133237306 0.995839724409276 -68.9501601493637 0.995839724409276 -68.9501601493637 0.0810939116388286 -159.290025563357 
0.55             0.0871988295801219 -166.659687041522 0.994616525079673 -75.8047767416961 0.994616525079673 -75.8047767416961 0.087189592732684 -166.532093483624 
0.6              0.0936340434173612 -173.536974873556 0.993820732579012 -82.6858790445524 0.993820732579011 -82.6858790445523 0.093623935257055 -173.392749897511 
0.65             0.100154492340752 179.690347034034 0.993097819860286 -89.5793336349475 0.993097819860287 -89.5793336349475 0.10014406853739 179.838599779145 
0.7              0.106591540190428 172.912798485947 0.992309457269308 -96.4753342541654 0.992309457269307 -96.4753342541654 0.106580536831426 173.057407967483 
0.75             0.112855068210062 166.102089635684 0.991424622049924 -103.368447032898 0.991424622049924 -103.368447032898 0.112842834860022 166.238689011784 
0.8              0.118916021898924 159.260229850021 0.990457710526976 -110.256638946788 0.990457710526976 -110.256638946788 0.118901710455684 159.386648724202 
0.85             0.124787243541561 152.397711920915 0.989435291617695 -117.140150618686 0.989435291617696 -117.140150618686 0.12476983162799 152.513280963853 
0.9              0.130508153170398 145.525406773585 0.988379540917931 -124.02050418925 0.988379540917931 -124.02050418925 0.130486440933209 145.630546827535 
0.95             0.136134869336449 138.652135548079 0.987301448224314 -130.899691231481 0.987301448224314 -130.899691231481 0.136107582722077 138.748124901727 
1                0.141735225396365 131.783796414915 0.986200793143156 -137.779518538155 0.986200793143155 -137.779518538155 0.141701358776455 131.872624958353 
1.05             0.147385799857233 124.921824786261 0.985072587964067 -144.661174702778 0.985072587964067 -144.661174702778 0.147345320833583 125.006029433501 
1.1              0.153163906001425 118.060681350918 0.983918808062719 -151.545330397923 0.983918808062719 -151.545330397923 0.153118816740464 118.143014165789 
1.15             0.159126163289038 111.188309450031 0.982754139177781 -158.433192268518 0.982754139177781 -158.433192268518 0.159081464348078 111.271088056207 
1.2              0.16528573036377 104.297080886509 0.981581448491666 -165.327771494752 0.981581448491666 -165.327771494752 0.165249100420497 104.381295532728 
1.25             0.17163823859094 97.3996252747131 0.980344862635726 -172.232408618019 0.980344862635726 -172.232408618019 0.171617304360128 97.4843865972597 
1.3              0.178238331111596 90.5204213101993 0.978945642117091 -179.146353712039 0.978945642117092 -179.146353712039 0.178236664229512 90.6034850078026 
1.35             0.185204714773996 83.6640909453417 0.977336970094254 173.935551798169 0.977336970094255 173.935551798169 0.185219982620737 83.7432511505985 
1.4              0.192627043691202 76.8098792359794 0.975554289884642 167.017512718512 0.975554289884643 167.017512718512 0.192652778141638 76.8840519757831 
1.45             0.200516768942746 69.9361206914122 0.973648731914306 160.099920160401 0.973648731914307 160.099920160401 0.20054553743927 70.0054587509302 
1.5              0.208839420965553 63.0355164682908 0.971635663195148 153.181154130184 0.971635663195149 153.181154130184 0.208865027504492 63.1009326448439 
1.55             0.21755552523593 56.1125342290975 0.96949588980432 146.259886466252 0.969495889804321 146.259886466252 0.217573828661635 56.1751899222317 
1.6              0.226635814638051 49.1761685819421 0.967195296302992 139.335920758191 0.967195296302992 139.335920758191 0.226644747173946 49.2371465512559 
1.65             0.236059796923482 42.2353885443313 0.964699239564393 132.410083254429 0.964699239564394 132.410083254429 0.23605910193532 42.295535413045  
1.7              0.24581015581011 35.2974652957136 0.961978857010124 125.483878086538 0.961978857010124 125.483878086538 0.245801082366497 35.3573367674704 
1.75             0.255868080326921 28.3677501012372 0.959012714588375 118.559199754889 0.959012714588377 118.559199754889 0.255853101233281 28.427608273851  
1.8              0.266210336120967 21.4499453676404 0.955786604321779 111.638149873913 0.955786604321779 111.638149873913 0.26619289086431 21.5097801430208 
1.85             0.276807654028261 14.5464617795211 0.952292860256297 104.722933025425 0.952292860256298 104.722933025425 0.276791902693181 14.606022726269  
1.9              0.287623932377979 7.65873564196347 0.94852970750553 97.8158013422104 0.948529707505531 97.8158013422104 0.287614508122766 7.71756797103639 
1.95             0.298615918534261 0.787486961798676 0.944500792543657 90.9190267466122 0.944500792543658 90.9190267466122 0.298617671346482 0.844968628948936 
2                0.309733187166275 -6.06707056078099 0.940214916801335 84.0348881571655 0.940214916801335 84.0348881571655 0.309750916094013 -6.01169213595884 
2.05             0.320918329217131 -12.9050520045602 0.935685965788291 77.1656660655598 0.935685965788292 77.1656660655598 0.320956503131526 -12.8526244279219 
2.1              0.332107321659426 -19.7267427865194 0.930933029404585 70.313639354212  0.930933029404586 70.313639354212  0.332169789891377 -19.6781747971158 
2.15             0.343230083861403 -26.5324484712431 0.925980722347693 63.4810798918066 0.925980722347693 63.4810798918066 0.34331977807098 -26.4886776850458 
2.2              0.354211258398343 -33.3223433361935 0.920859728550036 56.6702396587553 0.920859728550038 56.6702396587552 0.354329886163113 -33.2843051363729 
2.25             0.364971297790482 -40.0963087380238 0.915607605543645 49.8833227216464 0.915607605543646 49.8833227216464 0.365119027179963 -40.0649050896127 
2.3              0.375428011374784 -46.8537537630392 0.910269883111493 43.1224295533883 0.910269883111493 43.1224295533884 0.37560314518159 -46.829819634778 
2.35             0.385498848999273 -53.5934168636704 0.904901447873202 36.3894527773193 0.904901447873202 36.3894527773193 0.385697489314668 -53.5776802949858 
2.4              0.395104385867768 -60.3131666951839 0.899568055271249 29.685890386721  0.89956805527125 29.6858903867209 0.395320098512966 -60.3061961348383 
2.45             0.404173698526064 -67.0098700841199 0.894347415559182 23.0125265935518 0.894347415559182 23.0125265935518 0.404397211023942 -67.0119993755182 
2.5              0.412652399095281 -73.679503055046 0.889328426753717 16.3689240694195 0.889328426753718 16.3689240694195 0.412871421377048 -73.6907210251808 
2.55             0.420513403950045 -80.3178721341373 0.884605547092926 9.75271585415931 0.884605547092927 9.75271585415931 0.420712772693111 -80.3376632266432 
2.6              0.427767602504753 -86.9225294728659 0.880263408880839 3.15887779220026 0.880263408880839 3.15887779220025 0.427930139118144 -86.9496631462712 
2.65             0.434464525419495 -93.4963300942362 0.876347454012131 -3.42036641513339 0.876347454012131 -3.42036641513337 0.434573220308747 -93.5286382388154 
2.7              0.4406638515336  -100.051611951076 0.872827433356845 -9.99372774448527 0.872827433356845 -9.99372774448525 0.440705975701893 -100.085885227126 
2.75             0.446364721642077 -106.610446376707 0.869588891528646 -16.5662002637083 0.869588891528646 -16.5662002637083 0.446337582058624 -106.642692607004 
2.8              0.451432974955852 -113.194494753677 0.86650655405794 -23.1340955783732 0.86650655405794 -23.1340955783732 0.451348803729707 -113.220769547915 
2.85             0.455635307226052 -119.807570345409 0.863582864634114 -29.6869194351596 0.863582864634115 -29.6869194351595 0.455520797739057 -119.825200385976 
2.9              0.458812526518303 -126.430905703635 0.860994637853378 -36.2185215337609 0.860994637853378 -36.2185215337609 0.458700719428853 -126.43939544783 
2.95             0.461006394809172 -133.042196002825 0.858947230808131 -42.7355386604156 0.858947230808131 -42.7355386604156 0.460925015603764 -133.043160748673 
3                0.462381612362887 -139.636197672373 0.85750684132012 -49.2523759089098 0.85750684132012 -49.2523759089098 0.462345161639693 -139.632425740144 
3.05             0.46306848248396 -146.22457274082 0.856597296387746 -55.7807843605878 0.856597296387745 -55.7807843605877 0.463077354198914 -146.218908044998 
3.1              0.463102577308149 -152.823042300268 0.85610121775464 -62.3258124826429 0.85610121775464 -62.3258124826429 0.463147000818218 -152.817647573371 
3.15             0.462460562921706 -159.442273424688 0.855931930314845 -68.8881121080128 0.855931930314845 -68.8881121080128 0.462525673761123 -159.438376583045 
3.2              0.461112702204222 -166.086317281842 0.856044281549418 -75.4672805433818 0.856044281549418 -75.4672805433818 0.461182589951861 -166.084267922616 
3.25             0.459052455596734 -172.754643055245 0.8564164610787  -82.0636044320402 0.8564164610787  -82.0636044320402 0.459112757226491 -172.754087546428 
3.3              0.456304816159899 -179.444393084529 0.857030658491787 -88.678322621164 0.857030658491786 -88.678322621164 0.456344218462372 -179.444460027861 
3.35             0.452925091689166 173.848180498946 0.857861879370681 -95.3131881860141 0.85786187937068 -95.3131881860141 0.452936221742811 173.848718325094 
3.4              0.448995833520949 167.126915675959 0.858874907031991 -101.969859344728 0.858874907031991 -101.969859344728 0.448975878519549 167.129495434323 
3.45             0.444624393345124 160.395092695019 0.860027666792782 -108.649373544857 0.860027666792782 -108.649373544857 0.44457560901186 160.401204580374 
3.5              0.439939837806867 153.654509367879 0.861279884730873 -115.351878780308 0.861279884730873 -115.351878780308 0.439869911631745 153.665492072525 
3.55             0.435084879178257 146.904127083071 0.862605438317078 -122.076879799471 0.862605438317078 -122.076879799471 0.435006871184963 146.920879176096 
3.6              0.43019662911187 140.138886939327 0.864002327964521 -128.824348778525 0.86400232796452 -128.824348778525 0.430127894964227 140.161482903285 
3.65             0.425375007969858 133.350730277624 0.865484738115965 -135.596708685324 0.865484738115964 -135.596708685324 0.425334251023017 133.378010672812 
3.7              0.420659674736265 126.534653478119 0.867037736686474 -142.400233424575 0.867037736686474 -142.400233424575 0.420661575914286 126.56400981774  
3.75             0.416065778744612 119.698343827382 0.86854861734274 -149.242494121294 0.868548617342739 -149.242494121294 0.4161142873738  119.726050537928 
3.8              0.411695761251786 112.863437112607 0.869803426221463 -156.124788618345 0.869803426221461 -156.124788618345 0.411779860523551 112.885737589549 
3.85             0.407809528901687 106.047501717772 0.870620389190318 -163.037422568926 0.870620389190318 -163.037422568926 0.40790601378279 106.062061592917 
3.9              0.404714373295651 99.2435477332972 0.870991077597271 -169.966797979893 0.870991077597271 -169.966797979893 0.404797487392049 99.2503293369897 
3.95             0.402585039587025 92.425123480717  0.871037916966433 -176.906894801378 0.871037916966432 -176.906894801378 0.402636590101181 92.4260842798801 
4                0.401429054249235 85.5690855716113 0.870856963377581 176.138697783994 0.870856963377581 176.138697783994 0.401443014711606 85.5671089130614 
4.05             0.401183782429889 78.6682318631767 0.870436722070138 169.163177410736 0.870436722070138 169.163177410736 0.401165137560308 78.6661043202696 
4.1              0.401803514831331 71.7281575913842 0.869683746684681 162.162258334756 0.86968374668468 162.162258334756 0.401764526914372 71.7279980483236 
4.15             0.403282506005875 64.7592907197418 0.86847846760601 155.135793422529 0.86847846760601 155.135793422529 0.40323899560907 64.7623840408924 
4.2              0.40563990537388 57.7715604888485 0.866712297797315 148.08694518394  0.866712297797315 148.08694518394  0.40560849620699 57.7784147601694 
4.25             0.408897685645062 50.7725230249521 0.864301734491481 141.020885977824 0.86430173449148 141.020885977824 0.408894011330499 50.783015553101  
4.3              0.413064529747924 43.76746566134   0.861189817771134 133.943839874724 0.861189817771133 133.943839874724 0.413102134630203 43.7810101633309 
4.35             0.418127212378057 36.7602209006182 0.857343335232687 126.862543078416 0.857343335232687 126.862543078416 0.418216904090884 36.7759284457667 
4.4              0.424047550664983 29.7540431042093 0.852749718294024 119.783980841759 0.852749718294023 119.783980841759 0.424197047431419 29.7708665973564 
4.45             0.430762906642465 22.7523020176805 0.847414812357442 112.7152603563   0.847414812357441 112.7152603563   0.430976690789618 22.7691600116968 
4.5              0.438188860218819 15.7589317992787 0.841361510073837 105.66352906958  0.841361510073836 105.66352906958  0.438468190493359 15.7748094858941 
4.55             0.446223194259514 8.77864599480057 0.834628867521786 98.6358909083565 0.834628867521786 98.6358909083565 0.446566250257535 8.79267246326229 
4.6              0.45475063057842 1.81695461634237 0.8272712953484  91.6393008012895 0.8272712953484  91.6393008012895 0.455152771239414 1.82845676324187 
4.65             0.463647898660477 -5.11997164942128 0.819357509525003 84.6804343619748 0.819357509525003 84.6804343619748 0.464102019223034 -5.11143686770989 
4.7              0.472788788112682 -12.0255430249788 0.810969052125663 77.7655387991427 0.810969052125663 77.7655387991427 0.473285759778618 -12.020175249268 
4.75             0.482048883892987 -18.8930529383024 0.802198317418995 70.9002756963487 0.802198317418995 70.9002756963486 0.482578059702275 -18.8908106216327 
4.8              0.491309737003573 -25.7160011677327 0.793146126042508 64.089567675003  0.793146126042508 64.089567675003  0.491859507106536 -25.7166159071224 
4.85             0.50046229089269 -32.48840569193  0.783918969252731 57.3374599755549 0.783918969252731 57.3374599755549 0.50102067091984 -32.4914056024602 
4.9              0.509409462011387 -39.20508041787  0.774626089008216 50.6470053660889 0.774626089008216 50.6470053660888 0.509964699544764 -39.2098201845739 
4.95             0.518067852096775 -45.861865914983 0.765376565053948 44.0201772702373 0.765376565053948 44.0201772702373 0.5186090379173  -45.8675620928791 
5                0.526368637306608 -52.4558100708191 0.75627654907041 37.4578124723162 0.75627654907041 37.4578124723162 0.526886309295455 -52.4615812742452 
5.05             0.534257721950187 -58.9853046371979 0.747426724453946 30.9595822471    0.747426724453946 30.9595822470999 0.534744448892992 -58.9902174117224 
5.1              0.541695247991408 -65.4501914977004 0.73891998876332 24.5239905703864 0.73891998876332 24.5239905703864 0.54214617594062 -65.4533138566428 
5.15             0.548654498440617 -71.8518583866178 0.730839270962211 18.1484019352369 0.730839270962211 18.1484019352369 0.549067830493324 -71.8523241170402 
5.2              0.555120102406459 -78.1933454802271 0.723255340094464 11.8291114273179 0.723255340094464 11.8291114273179 0.555497459131983 -78.1904330795586 
5.25             0.561085225049945 -84.4794761695779 0.716224503660408 5.56148807570349 0.716224503660408 5.56148807570349 0.561431791851551 -84.4727059033581 
5.3              0.56654713352377 -90.7169957434201 0.709786365107952 -0.659752604565308 0.709786365107952 -0.659752604565328 0.566871439773024 -90.7062451917765 
5.35             0.571500346641238 -96.9146331876699 0.703962509553167 -6.84007424990949 0.703962509553167 -6.84007424990951 0.571813448701924 -96.90026290731  
5.4              0.575927019443072 -103.082885351365 0.698758230829434 -12.9844072998097 0.698758230829435 -12.9844072998098 0.576240819690933 -103.065848284296 
5.45             0.579786224351768 -109.233212000702 0.69417067322551 -19.0963364042615 0.69417067322551 -19.0963364042615 0.580110761554256 -109.215091993137 
5.5              0.583007915014355 -115.376426195817 0.690205867441787 -25.1776925510845 0.690205867441787 -25.1776925510845 0.583347884860719 -115.359322966821 
5.55             0.585500971507997 -121.520683931994 0.686900479749379 -31.2293973738321 0.68690047974938 -31.2293973738322 0.585852577814331 -121.506867363849 
5.6              0.587179631963817 -127.670528920165 0.684332221277908 -37.2539939428856 0.684332221277909 -37.2539939428855 0.587529775344758 -127.661872865871 
5.65             0.587993421934061 -133.828622738209 0.682599939802528 -43.2585788764854 0.682599939802528 -43.2585788764853 0.588323148980564 -133.826001802315 
5.7              0.587930403339082 -139.999546375935 0.681778432542859 -49.2553379118462 0.681778432542859 -49.2553379118462 0.588222516564418 -140.002519963374 
5.75             0.586984222453251 -146.192195691968 0.681885843356404 -55.2585262225846 0.681885843356404 -55.2585262225846 0.58723193094291 -146.199225863589 
5.8              0.585117840422648 -152.418318172277 0.682893346799882 -61.2804894603049 0.682893346799882 -61.2804894603049 0.585330143536768 -152.427460589362 
5.85             0.582261642307534 -158.689097908614 0.684762106702321 -67.3299123743883 0.684762106702321 -67.3299123743883 0.582463180307365 -158.698833696828 
5.9              0.578345687919724 -165.013537240197 0.687475485624594 -73.4122946045325 0.687475485624595 -73.4122946045324 0.578571961815589 -165.02341169834 
5.95             0.573340051579151 -171.400440154019 0.69106101342713 -79.5306672094426 0.69106101342713 -79.5306672094425 0.573630457619458 -171.411362058081 
6                0.567281491685768 -177.864082718516 0.695623323749141 -85.6857815140697 0.69562332374914 -85.6857815140697 0.567672268532525 -177.878292714229 
