! Touchstone file from project sampleWidthScale-1
! Exported from HFSS-IE 2014.0.2
! Variables:
!  $perm = 6
!  impedance = 157.9ohm
!  insulationThickness = 0in
!  length = 4in
!  portSize = 1mm
!  sampleSide = 0.125in
!  sampleThickness = 0.25in
!  scale = 1
!  spacing = 0.25in
!  wireDiam = 0.125in
!  wireRadius = 0.0625in
# GHZ S MA R 157.900000
! Terminal data exported
! Port[1] = Rectangle2_T1
! Port[2] = Rectangle2_T2
0.5              0.0162066215915684 -149.203944374918 0.999367127942973 -65.4256847754009 0.999367127942973 -65.4256847754009 0.0161862056953722 -162.456009351692 
0.55             0.0157536189401948 -178.371671651038 0.995919902296431 -71.7247656024105 0.9959199022964  -71.7247656024094 0.0157865090622996 173.352250868923 
0.6              0.0166587242702186 164.523430533899 0.995174869338162 -78.1126030945254 0.995174869338172 -78.1126030945272 0.0163400355446876 159.227614787888 
0.65             0.0174775119406891 154.672028102744 0.995837207676187 -84.5784459726523 0.995837207676165 -84.5784459726504 0.01708240144558 150.798179678464 
0.7              0.0179951614951298 148.475870850158 0.997104009651948 -91.1059144224016 0.997104009651938 -91.1059144224014 0.0179162930198855 144.86353908824  
0.75             0.0182357968330692 144.094571307478 0.998488861073897 -97.6786053386235 0.998488861073859 -97.678605338624 0.0187884023745114 139.600885041673 
0.8              0.0182272519914055 140.664142285158 0.999704716941062 -104.282268883402 0.999704716941047 -104.2822688834  0.0195961074221057 134.151341096023 
0.85             0.017991162597462 137.885000945386 1.0005861919914  -110.905210543678 1.00058619199138 -110.905210543677 0.0202295257744374 128.261503738476 
0.9              0.0175772641607972 135.806223926647 1.00103974974546 -117.537795019067 1.00103974974548 -117.537795019068 0.0206129421448478 122.013323361059 
0.95             0.0170987299531426 134.667620979663 1.00101502531319 -124.171509583183 1.00101502531318 -124.171509583184 0.0207249722240121 115.667269008919 
1                0.0167592643790069 134.689643282163 1.00049446296158 -130.797848613111 1.00049446296157 -130.797848613111 0.0206102812199046 109.589318354004 
1.05             0.0168532470579279 135.707561393652 0.999502178119686 -137.407298097465 0.999502178119669 -137.407298097464 0.0203963829694674 104.193944327896 
1.1              0.017694648937659 136.768963230208 0.998135094377692 -143.989017764664 0.998135094377689 -143.989017764664 0.0203158689768115 99.8026607668367 
1.15             0.0194559110866449 136.265817310671 0.996613778444208 -150.532532810843 0.996613778444206 -150.532532810843 0.0207008789376803 96.3224035479053 
1.2              0.0220113576957277 132.845840610761 0.995322645113933 -157.033448224944 0.995322645113932 -157.033448224944 0.0218705984018006 92.9021352423762 
1.25             0.0249105222449596 126.193722888831 0.994749394364202 -163.503652381736 0.994749394364204 -163.503652381735 0.0238798880904765 88.2011709338893 
1.3              0.0275092901835692 117.062395375183 0.995205568262183 -169.978556946605 0.995205568262174 -169.978556946605 0.0263256223578308 81.4564402916717 
1.35             0.0292754568387474 106.935478792354 0.996420665268019 -176.50367677586 0.996420665268018 -176.50367677586 0.0285171604193881 73.2339254151291 
1.4              0.0301988477764894 97.5037207901008 0.997534294269567 176.902507587128 0.997534294269567 176.902507587128 0.0300130270656213 65.0770429212448 
1.45             0.0309203731370187 89.8183779736843 0.997789437904626 170.268062946057 0.997789437904616 170.268062946057 0.0310586334969526 58.4305550138818 
1.5              0.0322663455239054 83.6235689465937 0.997137874657099 163.637574884019 0.997137874657099 163.637574884019 0.0323928964282597 53.619808104466  
1.55             0.0346522535965146 77.8330771551176 0.996026420085561 157.034000130138 0.996026420085562 157.034000130138 0.0346136105340596 49.816528058737  
1.6              0.0380205830050621 71.6386561947865 0.994873552892298 150.454731654945 0.994873552892296 150.454731654945 0.0378505395114911 46.0099659037753 
1.65             0.0421495599376424 64.8681374091365 0.993857379659647 143.887481698832 0.99385737965965 143.887481698832 0.0419386881165733 41.7177200630822 
1.7              0.0468651890568667 57.6787198315015 0.992976889814469 137.321857358348 0.992976889814468 137.321857358348 0.0466777459674877 36.91444049871   
1.75             0.0520765181344849 50.2711774671499 0.992160416534493 130.752358531674 0.992160416534494 130.752358531674 0.0519367237317848 31.7339047666336 
1.8              0.0577444260588923 42.7904556049362 0.991330001112814 124.177357490378 0.991330001112814 124.177357490378 0.057650401654406 26.3056415883065 
1.85             0.0638498307371041 35.3208656041502 0.990424834642219 117.597444557789 0.990424834642219 117.597444557789 0.0637890537511874 20.7146965816329 
1.9              0.0703750721010686 27.9047401764626 0.989404570460892 111.014238484808 0.989404570460892 111.014238484808 0.0703341110975561 15.0083138636253 
1.95             0.0772954233982247 20.5597821077734 0.98824594887442 104.429721692037 0.988245948874419 104.429721692037 0.0772643356381715 9.21072038198679 
2                0.0845762047823845 13.2905912138136 0.986938502375444 97.845918815664  0.986938502375444 97.845918815664  0.0845495719524887 3.3345186777155  
2.05             0.0921725900542172 6.09539640824349 0.985481122610901 91.2647579194734 0.985481122610901 91.2647579194734 0.0921488662259898 -2.61257118845973 
2.1              0.100030591042606 -1.03029253663494 0.983879710445179 84.6880159390336 0.983879710445179 84.6880159390336 0.100010825740393 -8.62434034829938 
2.15             0.108088502738906 -8.09182338083283 0.982145668539333 78.117296693141  0.982145668539333 78.117296693141  0.108075013805871 -14.6947045269181 
2.2              0.116278489986456 -15.0945244479094 0.980294936459594 71.5540170813165 0.980294936459594 71.5540170813165 0.116273749950736 -20.8173361972183 
2.25             0.12452818109843 -22.0433482778131 0.97834732392964 64.9993912705978 0.978347323929639 64.9993912705978 0.124534006254179 -26.9857471417765 
2.3              0.132762215470439 -28.9427811863141 0.976325966471816 58.4544095176198 0.976325966471816 58.4544095176198 0.132779259890113 -33.1935243336581 
2.35             0.140903726372688 -35.7968854161905 0.974256779187118 51.9198113841842 0.974256779187118 51.9198113841842 0.140931246898468 -39.4345838628718 
2.4              0.14887574984443 -42.6094103073904 0.972167812246319 45.3960546307139 0.97216781224632 45.3960546307139 0.148911599516478 -45.7033972997382 
2.45             0.156602539329197 -49.3839500856905 0.970088416798156 38.8832825335769 0.970088416798156 38.8832825335769 0.156643352091552 -51.9951928941198 
2.5              0.164010720741493 -56.1241498231203 0.968048121504681 32.3812953657087 0.968048121504681 32.3812953657087 0.164052261264502 -58.3061584307145 
2.55             0.171030119365734 -62.8339664797427 0.966075130883232 25.8895382601263 0.966075130883233 25.8895382601263 0.171067780682306 -64.6336764676449 
2.6              0.177593920996419 -69.5179585116188 0.964194480457842 19.4071285089746 0.964194480457842 19.4071285089747 0.177623346610009 -70.9765877218331 
2.65             0.183637714641117 -76.1814673847196 0.962426293864075 12.9329538349824 0.962426293864075 12.9329538349824 0.183655478242776 -77.3353645597108 
2.7              0.189097365613348 -82.830368402201 0.960785359921995 6.46585154990016 0.960785359921995 6.46585154990017 0.189101535786818 -83.7118765926016 
2.75             0.193907299300201 -89.4700373546625 0.959283634601052 0.00478167200465894 0.959283634601051 0.00478167200462755 0.193897570649163 -90.1083632245284 
2.8              0.19800288281142 -96.1038675453451 0.957935069137751 -6.45122565971922 0.957935069137751 -6.45122565971921 0.197979930392446 -96.525865804164 
2.85             0.20132842867975 -102.732982524151 0.956757075790216 -12.9034538471929 0.956757075790217 -12.9034538471929 0.201292507612375 -102.963686113285 
2.9              0.203843549260026 -109.358343024011 0.955763445257081 -19.3537994524318 0.955763445257081 -19.3537994524318 0.203793060745291 -109.421128298521 
2.95             0.205518935926063 -115.983026848493 0.954955698376629 -25.8044534054542 0.954955698376629 -25.8044534054542 0.205449972861263 -115.899533745554 
3                0.206327533370425 -122.611599916631 0.954324385595856 -32.2572985676188 0.954324385595856 -32.2572985676188 0.206234724810951 -122.401702642824 
3.05             0.20624361047272 -129.247754985458 0.953857035324047 -38.7137542098447 0.953857035324047 -38.7137542098446 0.206121605219073 -128.929785567141 
3.1              0.205249077289815 -135.893211030008 0.953542059186613 -45.1750312227961 0.953542059186613 -45.1750312227961 0.205093796419507 -135.484410458432 
3.15             0.203338896672835 -142.548229382813 0.953367127004936 -51.6423271668169 0.953367127004936 -51.6423271668169 0.203148171228583 -142.065288992281 
3.2              0.200522617307467 -149.21246678496 0.95331668178319 -58.1168027739783 0.95331668178319 -58.1168027739783 0.200296297149453 -148.672057229031 
3.25             0.196823738019725 -155.885439440609 0.95337128197083 -64.5994576593092 0.953371281970831 -64.5994576593092 0.196563506532126 -155.30469732922 
3.3              0.192278726970348 -162.566610815752 0.953508619204708 -71.0910247301977 0.953508619204709 -71.0910247301977 0.191987807017579 -161.963597208291 
3.35             0.186936295597554 -169.25530562321 0.953705251746055 -77.5919251681094 0.953705251746055 -77.5919251681094 0.186619146835057 -168.649464225951 
3.4              0.180856846777789 -175.950572726536 0.953938331003334 -84.1022802937264 0.953938331003334 -84.1022802937264 0.18051889574177 -175.363215191926 
3.45             0.174111898271329 177.34897904592  0.954186936359981 -90.6219631406268 0.954186936359981 -90.6219631406268 0.173759312134542 177.894137118335 
3.5              0.166783385861574 170.645404207142 0.954432841885862 -97.1506709228473 0.954432841885862 -97.1506709228473 0.16642288513435 171.121636672442 
3.55             0.158962887587098 163.94175615329  0.954660666220288 -103.687999726206 0.954660666220289 -103.687999726206 0.158601581898005 164.318633460549 
3.6              0.150750917997963 157.242583994539 0.954857474747263 -110.233502804766 0.954857474747263 -110.233502804766 0.150396137240376 157.48518603366  
3.65             0.142256497478389 150.554605586785 0.95501205008301 -116.786715156343 0.955012050083011 -116.786715156343 0.141915577589894 150.622648388513 
3.7              0.133597177672524 143.887484681236 0.95511423700831 -123.34713227808 0.95511423700831 -123.34713227808 0.133277151052446 143.73440223952  
3.75             0.124899531133205 137.254460875568 0.955154988628884 -129.914144773862 0.955154988628885 -129.914144773862 0.124606679769509 136.826545795227 
3.8              0.116299652075546 130.672281161588 0.955127899721017 -136.486960544084 0.955127899721019 -136.486960544084 0.116038933427202 129.908092431359 
3.85             0.107942294193052 124.159565642867 0.955032790429493 -143.064600613664 0.955032790429493 -143.064600613664 0.107716780179122 122.989954447822 
3.9              0.0999760441906131 117.732951159905 0.954880556317665 -149.646120377565 0.954880556317667 -149.646120377565 0.0997867152566058 116.082170569659 
3.95             0.0925419346440624 111.402331948703 0.954695205091795 -156.231193700402 0.954695205091796 -156.231193700402 0.0923882524641409 109.190612548205 
4                0.0857579931307275 105.170803813202 0.954505320438716 -162.82089117525 0.954505320438716 -162.82089117525 0.0856391324506275 102.318364054659 
4.05             0.079713953388314 99.046185405916  0.95432138014163 -169.417828569449 0.95432138014163 -169.417828569449 0.0796291215556653 95.4783915548505 
4.1              0.074493553880539 93.0571279606804 0.954115770585007 -176.024741957329 0.954115770585006 -176.024741957329 0.0744390669369658 88.7116693818881 
4.15             0.0702110445516403 87.245310187921  0.953836733812315 177.357663917478 0.953836733812316 177.357663917478 0.0701748054604794 82.0841786699756 
4.2              0.0670131058792707 81.6225721385985 0.953451232466421 170.730864607496 0.95345123246642 170.730864607496 0.0669718067248189 75.6495989238797 
4.25             0.0650340578034823 76.1367261538072 0.952963637953157 164.09617607819  0.952963637953158 164.09617607819  0.0649569497219533 69.4142284924255 
4.3              0.0643578193040692 70.6872633548774 0.952389434559731 157.452975450265 0.95238943455973 157.452975450265 0.0642141733507628 63.3418062240947 
4.35             0.0650216391925786 65.1681987109409 0.951723210923884 150.799231907893 0.951723210923884 150.799231907893 0.0647870118580007 57.3808161382678 
4.4              0.0670393807972995 59.4970543096131 0.950931491965797 144.132988945212 0.950931491965796 144.132988945212 0.0666991733968964 51.4807657084469 
4.45             0.0704159539899721 53.6223089568987 0.949963355406665 137.453275715231 0.949963355406665 137.453275715231 0.069966951319034 45.5938530811631 
4.5              0.0751484103763459 47.5209525145492 0.948762636688558 130.760257697808 0.948762636688557 130.760257697808 0.0745987229813915 39.6746921256368 
4.55             0.0812210600352142 41.1936049578777 0.947275097276153 124.055045625109 0.947275097276152 124.055045625109 0.080588519766881 33.6838927086574 
4.6              0.0886004306887278 34.6585809840043 0.94545129744625 117.339483039417 0.94545129744625 117.339483039417 0.0879097881010977 27.5929536544393 
4.65             0.097232052205939 27.9453135739296 0.943247563887596 110.616017560982 0.943247563887596 110.616017560982 0.0965116829753021 21.3868591753375 
4.7              0.107039129660356 21.0882308074915 0.940626690284456 103.88764631237  0.940626690284455 103.88764631237  0.106317949055695 15.0633983545769 
4.75             0.117922743789265 14.1220996536521 0.937559053422383 97.1578949238985 0.937559053422383 97.1578949238985 0.117227748344968 8.63031687411743 
4.8              0.129763292830496 7.07916274404213 0.934024231233033 90.4307932540196 0.934024231233032 90.4307932540196 0.129117844720651 2.10184751804377 
4.85             0.142422994203778 -0.0122004448240685 0.930012922352007 83.7108230153445 0.930012922352007 83.7108230153445 0.141845773231578 -4.5043483663378 
4.9              0.155749295378515 -7.12779454876758 0.925528857368692 77.0028240135415 0.925528857368692 77.0028240135414 0.155253774177993 -11.1694395244378 
4.95             0.169579018945086 -14.2473877265926 0.920590374941285 70.3118549649656 0.920590374941285 70.3118549649656 0.169173323028608 -17.8749071327321 
5                0.183743020051917 -21.3542886194258 0.91523136919582 63.6430120696295 0.915231369195819 63.6430120696294 0.183430070690243 -24.6034408446602 
5.05             0.1980710870444  -28.4349204122515 0.909501376691611 57.0012141143144 0.909501376691611 57.0012141143144 0.197848964896397 -31.3394571610041 
5.1              0.212396778857116 -35.4784895281972 0.903464646753466 50.3909672918552 0.903464646753466 50.3909672918552 0.212259278760429 -38.0694078890662 
5.15             0.226561864921338 -42.4767848701669 0.897198115761873 43.8161267999964 0.897198115761872 43.8161267999963 0.226499234723053 -44.7819956733824 
5.2              0.240420003749114 -49.4241106937475 0.89078827960992 37.2796767273611 0.890788279609919 37.2796767273611 0.240419872155494 -51.4683711421058 
5.25             0.253839245541322 -56.3173365665477 0.8843270437826  30.783556270821  0.884327043782599 30.783556270821  0.253887743251183 -58.1223518794549 
5.3              0.266702861757142 -63.156023544731 0.877906780973089 24.3285698833729 0.877906780973088 24.3285698833729 0.266785918590891 -64.7406654222598 
5.35             0.278907935444318 -69.9425366416785 0.871615147291443 17.9144286982605 0.871615147291443 17.9144286982605 0.279012677883885 -71.3231574452916 
5.4              0.290361284663251 -76.681965361967 0.865530820943369 11.5399670720558 0.865530820943369 11.5399670720558 0.290477341966026 -77.8728047205005 
5.45             0.300973080917978 -83.3815702053003 0.859722165553854 5.20352906924868 0.859722165553853 5.2035290692487  0.301093425414165 -84.3952482085358 
5.5              0.310650493077639 -90.0494840873606 0.854251135805287 -1.0966170166522 0.854251135805286 -1.09661701665219 0.310771245512611 -90.8975401333771 
5.55             0.319296401207216 -96.6927952167143 0.849182666841318 -7.36218243188929 0.849182666841319 -7.36218243188925 0.319415015870832 -97.3861582533292 
5.6              0.326818345208177 -103.316066003042 0.84459375353066 -13.5954696728802 0.844593753530661 -13.5954696728802 0.326930076683383 -103.86525988381 
5.65             0.333145010437519 -109.922050516639 0.840570422882945 -19.8005597075263 0.840570422882946 -19.8005597075263 0.333238716340693 -110.336936546414 
5.7              0.338234266424295 -116.515079586667 0.837186917771093 -25.9839771666588 0.837186917771093 -25.9839771666588 0.338289844220469 -116.804116439562 
5.75             0.342057429971041 -123.104225152119 0.834482838466288 -32.1536844145168 0.834482838466288 -32.1536844145168 0.342047188071114 -123.273541372363 
5.8              0.34457046308701 -129.702303827446 0.832463779884761 -38.3170220810883 0.832463779884761 -38.3170220810883 0.344464809399473 -129.755072773392 
5.85             0.345702835417405 -136.321093735764 0.831125910369913 -44.4796491752873 0.831125910369913 -44.4796491752873 0.345478212747051 -136.257553032893 
5.9              0.34537605755883 -142.967348244172 0.830477214156703 -50.6462632649197 0.830477214156703 -50.6462632649197 0.34502222474855 -142.785448987691 
5.95             0.343533876023504 -149.642534553864 0.830537381538089 -56.8217717525174 0.83053738153809 -56.8217717525174 0.343058742631247 -149.338981568229 
6                0.34016440846406 -156.345225991089 0.831325100433427 -63.0114595301632 0.831325100433428 -63.0114595301632 0.339596145839644 -155.916710709288 
